# HZ S RI R 50
14000000 0.21348241703308418 0.8532663618047573
14000496 0.21425928086427423 0.8529006314914671
14000992 0.21560150955848553 0.852170622562738
14001488 0.21684000776004853 0.8517031856983366
14001984 0.21822342114484292 0.8512989212214541
14002480 0.21973616962455142 0.8503528870433461
14002976 0.22093975823354697 0.8503140810731985
14003472 0.2219479522025992 0.8493399905939101
14003968 0.2227197481549416 0.8488785358021435
14004464 0.22407782848808191 0.8488610644033739
14004960 0.22523657709226727 0.848195276373773
14005456 0.22638367260753037 0.8480088690175349
14005952 0.22779799453546415 0.8477632285874015
14006448 0.22838910540943008 0.8472277603338748
14006944 0.23064976835813178 0.8467845780433914
14007440 0.23134963688152876 0.8459137362509287
14007936 0.23288570773455564 0.8457790633312785
14008432 0.2343400742701929 0.8448671359928179
14008928 0.23523276134207996 0.8443315656356262
14009424 0.23656175496865173 0.8438985129764803
14009920 0.23763123463873193 0.8438693413121326
14010416 0.2388531715812719 0.8430523403048131
14010912 0.2403429220051303 0.8426933893092321
14011408 0.24116344195086803 0.8421980111022916
14011904 0.24227246860251356 0.8414238888915374
14012400 0.2442605472830825 0.841289351920756
14012896 0.24547727882666842 0.8405390780506147
14013392 0.24656845194530896 0.8398956495153613
14013888 0.24793695207972719 0.8397205320384896
14014384 0.24861200528889843 0.8388679532798767
14014880 0.2499289758588411 0.8383512154862401
14015376 0.25139513007175823 0.8377644297705198
14015872 0.252414402856465 0.8371185117388853
14016368 0.25364076603404306 0.837128992702704
14016864 0.25510539035228974 0.8364846944039458
14017360 0.2564486356813278 0.835596377611102
14017856 0.25769594121547235 0.8351940793029504
14018352 0.25882540967831497 0.8347063448814874
14018848 0.26037672429018016 0.8338906322826211
14019344 0.2615142148203208 0.833616795012894
14019840 0.2624335855087553 0.8325417829959886
14020336 0.26415337097165126 0.8319718361071914
14020832 0.26506736782963364 0.8318854342672612
14021328 0.26622691890811073 0.8308475838769638
14021824 0.2675006120225098 0.8306909559708633
14022320 0.2689313745114364 0.8299223647077314
14022816 0.27000342186817483 0.8291640889741937
14023312 0.2717829274359803 0.8288997423911685
14023808 0.2729544485584059 0.8281283274470392
14024304 0.27430198000950057 0.8275936899047821
14024800 0.27525443113759845 0.8270167360689874
14025296 0.2768185676064172 0.82601991491058
14025792 0.2777076335894119 0.825416375861383
14026288 0.2788905949408221 0.8252843378008542
14026784 0.2801782987830928 0.8241405095598966
14027280 0.28201125397469134 0.8239102298949518
14027776 0.2829348040366186 0.823324813809896
14028272 0.28449076749731467 0.8223613846185952
14028768 0.2857467447774322 0.8221533475148269
14029264 0.2867903119745742 0.8216240323438302
14029760 0.28813384511671886 0.8202205313272183
14030256 0.2892219675514755 0.8202607789890839
14030752 0.29053589723256307 0.8189586689009333
14031248 0.291786413284878 0.8184993719120696
14031744 0.29275422738294904 0.8178398720443664
14032240 0.2947581457415896 0.8169487783961364
14032736 0.29588812786316443 0.8161790242618925
14033232 0.2971864037256748 0.8154825046623834
14033728 0.2984620801094149 0.8150928815527093
14034224 0.2998970300584089 0.8144775967755858
14034720 0.3012146989371903 0.8137122749508334
14035216 0.3052684831241883 0.8105953068091358
14035712 0.30346017925459845 0.8124646546650965
14036208 0.3049115401857959 0.8114032517751009
14036704 0.3062880683958329 0.8108850434472975
14037200 0.3079307640874198 0.8103343697134793
14037696 0.3089322621053892 0.8090853261918495
14038192 0.3106981135870559 0.8085446506090028
14038688 0.3114248522558006 0.8079486024380322
14039184 0.3131688259060348 0.8069944388833503
14039680 0.3141485243205497 0.8064539297232997
14040176 0.3156726025565366 0.8054841799389595
14040672 0.3167721305362022 0.8045787869916027
14041168 0.31790703957146305 0.8041255024989172
14041664 0.3189529448462011 0.8032974016092862
14042160 0.3208979927498652 0.8021262221432539
14042656 0.321723243917199 0.8014736540372863
14043152 0.3234214375832702 0.800603763647202
14043648 0.324650537010802 0.8000285194211794
14044144 0.3259935622661753 0.7992691848470487
14044640 0.32706632245477923 0.7983210096727548
14045136 0.32853691449885575 0.7978061672677683
14045632 0.32988112667879543 0.7965297478698706
14046128 0.3313787672578118 0.7960399295707447
14046624 0.33225434676329474 0.7953861620136493
14047120 0.3337172129335015 0.7941080631898025
14047616 0.3353954251232807 0.7931720905195516
14048112 0.3366327268185264 0.7926873258323276
14048608 0.3380630224329488 0.7916193163394497
14049104 0.33935532350790215 0.7908521526148663
14049600 0.34019758809070816 0.7901301942305445
14050096 0.3420043488170236 0.7895576456568626
14050592 0.3422950018600945 0.7880349786531596
14051088 0.3444640723200642 0.7877359121675596
14051584 0.34595383399608465 0.7863324736873402
14052080 0.3476138324853636 0.7857107608813456
14052576 0.3481495407564383 0.7852078308222733
14053072 0.3502892336851108 0.7838104785640974
14053568 0.3511345967618951 0.7830259950507676
14054064 0.3526940085957072 0.782167568233524
14054560 0.35422181903937483 0.7812248457289068
14055056 0.3552496176375151 0.7802849935212888
14055552 0.3566671207739473 0.7792011011611218
14056048 0.35784363202045505 0.7786427752975374
14056544 0.3589406031783078 0.7769353734614188
14057040 0.3610346955841753 0.7763092041421948
14057536 0.36205266299589717 0.7751266078480636
14058032 0.3633456326282908 0.7743986919888234
14058528 0.3650393877078532 0.773690646674907
14059024 0.36584255207961114 0.7726652404800699
14059520 0.3675313913376964 0.7718226231486138
14060016 0.3690387223508158 0.7709927668585059
14060512 0.37007832975107946 0.7691113689513965
14061008 0.37141117548166075 0.7687538735714818
14061504 0.37289543855165347 0.7678262089452744
14062000 0.374081951343374 0.7660911946626037
14062496 0.3756226692369308 0.765242623256252
14062992 0.3772280241769755 0.7643267518673191
14063488 0.37820076098079575 0.7630791876966094
14063984 0.3798500338093251 0.7624567073442077
14064480 0.38085578304630896 0.7609809307355873
14064976 0.3825885361502737 0.7596062239621098
14065472 0.3837860712408531 0.7594671137289225
14065968 0.385420253090324 0.7582094531896053
14066464 0.38661545803322117 0.7573197905298072
14066960 0.3876236674028054 0.7560523709346862
14067456 0.38873059805043997 0.7543615121016531
14067952 0.390601883115828 0.753803034259523
14068448 0.39155187981226136 0.7530124177128156
14068944 0.3934432705355439 0.7513154457454309
14069440 0.39502670307362386 0.7503970154949934
14069936 0.3960752840180903 0.7491343016882243
14070432 0.3978230965607635 0.7477696047695227
14070928 0.3990503628256543 0.7470363756712616
14071424 0.39999126989756334 0.7456366113677881
14071920 0.40167082481347616 0.7447666865402978
14072416 0.40274769973092117 0.7434900584503917
14072912 0.40382896555945547 0.7421878764543823
14073408 0.4054750562801202 0.7413611710351761
14073904 0.40709471074913817 0.73999568606377
14074400 0.4086379120573776 0.7381825705772512
14074896 0.40997776341654024 0.7378758595850237
14075392 0.411021524686521 0.7360449900576991
14075888 0.4127364435012855 0.7349325953128821
14076384 0.4138890930273634 0.7339295743678822
14076880 0.41522725600621063 0.7327720028043301
14077376 0.41663335055952777 0.7309166944722995
14077872 0.4176961456016315 0.7305790136922009
14078368 0.4190352232330626 0.7287017886132332
14078864 0.42083873537331834 0.7276699009761414
14079360 0.42201716058600364 0.726091633711681
14079856 0.42353707935607715 0.7246892594114462
14080352 0.4250076820588054 0.7235017779189121
14080848 0.42614096525753303 0.7223429848407472
14081344 0.4279861882722225 0.7208154906870085
14081840 0.4286138152208339 0.7196723936270026
14082336 0.4302716503343656 0.7182282288780854
14082832 0.4318202545657653 0.7169667990315818
14083328 0.4324095068063734 0.7158274404330905
14083824 0.4342353294453084 0.7141630212676231
14084320 0.4359604178782487 0.712752589372685
14084816 0.43159500920431076 0.7192364621387753
14085312 0.43334336408155927 0.7172806303825845
14085808 0.4394217430376299 0.7091678654406086
14086304 0.44094661519715433 0.7076458974614334
14086800 0.4428019874571554 0.7051686285368098
14087296 0.4384626418083858 0.7120068275511375
14087792 0.4454927092256219 0.7026983549037739
14088288 0.4467914349644553 0.7013192963777354
14088784 0.44755610534150647 0.7002118712932367
14089280 0.4495450097295592 0.6982603325594412
14089776 0.4510262270777397 0.6969237359647583
14090272 0.44676252467212285 0.7029809738322677
14090768 0.45387235784122454 0.6934556956948912
14091264 0.454566008493683 0.6927147364026797
14091760 0.45576696305767767 0.6914493179253391
14092256 0.45774987207571216 0.6894987739141959
14092752 0.4586490646991927 0.6883428446911218
14093248 0.4597096934189769 0.6866175476784904
14093744 0.4619491265173737 0.6849703645830859
14094240 0.4623472173244261 0.6832670193913492
14094736 0.4594022628944448 0.6892060558627402
14095232 0.46574763136824715 0.6801395590271857
14095728 0.46699382331869893 0.6785603260070643
14096224 0.46869369813569667 0.6766710335932492
14096720 0.46924212416869904 0.6751203570925938
14097216 0.47079688718308965 0.6736549138005365
14097712 0.47249219483156374 0.6715742938721264
14098208 0.47315578798102315 0.670303193343766
14098704 0.4747923430781669 0.6688126895591858
14099200 0.4761504238826103 0.6667627069621651
14099696 0.4770584271776045 0.6653431295169522
14100192 0.478887697008973 0.6640846651249944
14100688 0.4803078570017233 0.6620562298934993
14101184 0.4812269598199321 0.6600498327271564
14101680 0.4828661130756105 0.658287107276011
14102176 0.4839053316313407 0.6570415123769353
14102672 0.4853105445731398 0.6546767911276136
14103168 0.48655721425675663 0.6530826335757726
14103664 0.4877311730704581 0.6512620611044913
14104160 0.4895435516063716 0.649473866482269
14104656 0.490634461537322 0.6477469561894328
14105152 0.4916520091619102 0.6460119499531577
14105648 0.4932487278415435 0.6441112916967995
14106144 0.49472425889856525 0.6426198992598894
14106640 0.49565030652861375 0.6402812639444687
14107136 0.49765804637600036 0.6387321495643211
14107632 0.49780198203545484 0.6363273947935929
14108128 0.49960465384527586 0.6345855606452891
14108624 0.5007840440571074 0.6327468788157035
14109120 0.502274114562302 0.6306832448478427
14109616 0.5036092672913631 0.6282818974223924
14110112 0.5049451856501631 0.6270693046105064
14110608 0.5056849041634537 0.6253380941813094
14111104 0.5075643088455211 0.6231885361911929
14111600 0.5083455990246801 0.6212732449233189
14112096 0.5097994545111921 0.6191525964012956
14112592 0.5110784145270117 0.6170741017396202
14113088 0.5119595478109552 0.6156168917141959
14113584 0.513151482797108 0.6127832061501919
14114080 0.5147651642495972 0.6111368108840328
14114576 0.5155558427458685 0.6087979109099936
14115072 0.517333668203493 0.6061598057341013
14115568 0.5182673897107247 0.6052424831705983
14116064 0.5193164032057236 0.602978848957187
14116560 0.5210537732525378 0.6006497081864298
14117056 0.5218749287754629 0.5988942196625825
14117552 0.523063759241732 0.5962144879252181
14118048 0.5247641162218043 0.5944251816436507
14118544 0.5249103160244338 0.5925792275730489
14119040 0.5264582833158796 0.5891152900406138
14119536 0.5277507593991694 0.5876716874599072
14120032 0.5289263647727902 0.5851278025408045
14120528 0.530172235490633 0.5824237835926142
14121024 0.5312019813494516 0.5813583393063652
14121520 0.5324300136855434 0.5787031451100179
14122016 0.5339618067651853 0.575996679525496
14122512 0.5344883831072405 0.5745500133330136
14123008 0.5359082737392318 0.571689640045507
14123504 0.5369023987539903 0.5694622248019388
14124000 0.5372748962040658 0.5669618763648563
14124496 0.5392023268766678 0.5639291670518982
14124992 0.5400847555989461 0.5620785615377976
14125488 0.5408903631144857 0.5594252879450085
14125984 0.542506938992096 0.557104236943296
14126480 0.5428754195345763 0.5556984518390358
14126976 0.5441847929115613 0.553308743414958
14127472 0.5456968875403855 0.5501654054487289
14127968 0.5462413967390503 0.5483936619654489
14128464 0.5476515096741692 0.5452694951123176
14128960 0.548506678940107 0.5426351368635511
14129456 0.5490885942094283 0.540771415217839
14129952 0.5507402630738542 0.537358507015407
14130448 0.551180315113036 0.5352225031783032
14130944 0.5523145144248042 0.5329155757965865
14131440 0.5534573112502907 0.5303456789640169
14131936 0.5540576493590147 0.5282767304546625
14132432 0.5551684724900993 0.5255430868404184
14132928 0.5563738290762862 0.522676422784049
14133424 0.5571144849574031 0.5204554851562178
14133920 0.558193766269682 0.5170947042860563
14134416 0.5591280547637328 0.5147386638830117
14134912 0.5593732745978396 0.5121704413247355
14135408 0.5612308798502864 0.5091312059596633
14135904 0.5614409383559472 0.5066103473712726
14136400 0.5623764565509154 0.504162507072496
14136896 0.5634947914166576 0.5006355082102456
14137392 0.5640616803505845 0.49886871000343536
14137888 0.5648536770730989 0.4958529960600207
14138384 0.5664304743431033 0.49286182545630597
14138880 0.5664376716176421 0.4906486763611929
14139376 0.5680604970268285 0.4871431381211732
14139872 0.5683107147001144 0.48461162806536634
14140368 0.5684156496591474 0.48235611547291757
14140864 0.5697091996852041 0.4783590584026368
14141360 0.5701410250431406 0.47610989014679966
14141856 0.5706633653439822 0.4729985848679234
14142352 0.5724379446023413 0.46974443730705684
14142848 0.5722758395613987 0.467802281921666
14143344 0.57318605371239 0.46438651217219407
14143840 0.5742409262523936 0.4611088478711828
14144336 0.5746274435111497 0.45826911841926016
14144832 0.5755047079561502 0.45485805092740667
14145328 0.5761065045759984 0.4526761030062889
14145824 0.5757972234859396 0.4496821121992194
14146320 0.5770523839134186 0.44555237398080916
14146816 0.5769799826517493 0.44327343024985844
14147312 0.577794242852079 0.4402088382473896
14147808 0.5787573321627599 0.4366444069151339
14148304 0.5787813557254616 0.4345928584159035
14148800 0.5793151318130694 0.4308065884303622
14149296 0.5808101146236593 0.42756291951657116
14149792 0.5801718809582921 0.4243429541455519
14150288 0.5805137196026587 0.42209287530935397
14150784 0.5805349357899056 0.4188344493324942
14151280 0.5817114187898431 0.4145730931788556
14151776 0.5821686596287782 0.41122657457844763
14152272 0.582392716878234 0.408488548348347
14152768 0.5830501314958121 0.40503028135592084
14153264 0.5835786175103506 0.40215832143404984
14153760 0.5832154879272361 0.39929218026488406
14154256 0.5844251550684216 0.3951729953221549
14154752 0.5836564320988866 0.392524083880318
14155248 0.584310336862027 0.3890643040649122
14155744 0.5845105007115162 0.3851781641001289
14156240 0.5841845317727817 0.3827408583856404
14156736 0.5843710660590783 0.37855149616335815
14157232 0.5849306626057429 0.3747877554289823
14157728 0.5846080511211083 0.3719388965219829
14158224 0.5852991335303923 0.367639563838964
14158720 0.5852777482052236 0.36516014641918465
14159216 0.5852068360325515 0.3617566448997427
14159712 0.5855249008258795 0.35743625902657233
14160208 0.5851626505224593 0.3551492516832519
14160704 0.5850144912097558 0.3511133230396088
14161200 0.5851011224032096 0.3470406639244001
14161696 0.5845693342882532 0.3446473197449531
14162192 0.5845990352007742 0.3400115508285792
14162688 0.5847990209922102 0.3366381155668099
14163184 0.58427541525263 0.333527850191314
14163680 0.5849551416445752 0.3291212322936359
14164176 0.5847788035700116 0.32625326530330245
14164672 0.5835822808575233 0.32261784277667316
14165168 0.5841860484949635 0.3184746950747123
14165664 0.5833202919127366 0.31566076447359803
14166160 0.5824363300576093 0.3115310057140334
14166656 0.5832783348473636 0.3078489232192879
14167152 0.5818116660496604 0.3047296704341673
14167648 0.5816245401367615 0.2998414834652092
14168144 0.5815605725402123 0.29643295367321726
14168640 0.5808798596960836 0.29301930542994364
14169136 0.5809271134712297 0.2882647877576749
14169632 0.5802694309401013 0.2860941709783566
14170128 0.5792661442703769 0.28232204032467517
14170624 0.5793438446199359 0.2777000847876768
14171120 0.5779772343500685 0.27464813407109634
14171616 0.5776061932303109 0.27030048843676524
14172112 0.5765947820984795 0.2690075359097877
14172608 0.5761461209475632 0.26358845525603414
14173104 0.5747942747560871 0.2579398165044494
14173600 0.5748838886063409 0.2547736140166705
14174096 0.5730707003745326 0.25096927247159145
14174592 0.5732105980016432 0.24650036841510098
14175088 0.5721833477027828 0.24393181679547177
14175584 0.5708276297670185 0.23994076814205179
14176080 0.570450093304613 0.23518506869198327
14176576 0.5690101101765104 0.23221607698865923
14177072 0.5681121766202695 0.22718238829063175
14177568 0.5674107191693105 0.22364350904183158
14178064 0.5656294747361997 0.22077753198444153
14178560 0.5646420774960482 0.21501052068384569
14179056 0.5637337681720825 0.21183062829684388
14179552 0.5619046708329308 0.20813518648762705
14180048 0.5611871574141833 0.20342733877155095
14180544 0.5598655412957262 0.2012086902184901
14181040 0.5582115943337328 0.1967790212128243
14181536 0.5573343685357083 0.19143425665030964
14182032 0.555510213615645 0.1887964354756161
14182528 0.5540483927067952 0.183801078128273
14183024 0.5529780271506806 0.1802150758921165
14183520 0.5508876907319673 0.17679095271596382
14184016 0.5492738001130464 0.17116141300248938
14184512 0.5479343616828927 0.16838227221654353
14185008 0.5453095922160508 0.1641863955364453
14185504 0.5443729184806493 0.1593116356801673
14186000 0.5424391670168093 0.1572757311654056
14186496 0.5400593551852217 0.15250832610413764
14186992 0.539048068026986 0.147806411465142
14187488 0.5366621547690879 0.14469213875278314
14187984 0.5346432845315441 0.13953589597176325
14188480 0.5332266026950644 0.13606588272064243
14188976 0.5306959176144032 0.13073193869491365
14189472 0.5282577176550333 0.12690569637811497
14189968 0.527168277287569 0.12470408742031154
14190464 0.5239134515244506 0.12027923689237155
14190960 0.5222818941160372 0.11584686670432082
14191456 0.5204661029266784 0.11356006412668573
14191952 0.5172308152421369 0.10887573751206678
14192448 0.5155815944907823 0.10407972959884745
14192944 0.5124251870695387 0.10090092567848108
14193440 0.5098401540748828 0.09550698039947524
14193936 0.5078511668108521 0.0921999836097445
14194432 0.5049526018838754 0.0889007848220978
14194928 0.5024023535636121 0.08401220346083454
14195424 0.5003339062151323 0.08141847344414174
14195920 0.4972819968527239 0.07696842141423793
14196416 0.4949492478688222 0.07226446948315998
14196912 0.4923868754079708 0.07039967283807191
14197408 0.48867448104254496 0.06524709870570991
14197904 0.48636819141058013 0.061015870384658305
14198400 0.48285143116131757 0.058172506884376377
14198896 0.4796569291057876 0.05268391472325843
14199392 0.47754018068578263 0.049826085823141956
14199888 0.47426503265633274 0.046968566216461144
14200384 0.47036315504951715 0.04389239603726885
14200880 0.4671644841014052 0.03883139453993932
14201376 0.4642951492525595 0.0345518502311004
14201872 0.4619136915450459 0.030201144189324656
14202368 0.4584134805133368 0.02809032598651655
14202864 0.45444785463017157 0.022585756054039296
14203360 0.4515714024317165 0.0198400153114005
14203856 0.4477924753259729 0.016802813141676934
14204352 0.4443036129744767 0.012213908123291125
14204848 0.44159174929584144 0.010244844493104198
14205344 0.4367094535849283 0.006102325172449141
14205840 0.4337205434909614 0.0011040494710588481
14206336 0.4297636866784476 -0.0013177385118592596
14206832 0.4254009191545917 -0.005776028564190684
14207328 0.42243501984009946 -0.009003528170168503
14207824 0.4187094615534996 -0.010944910916608215
14208320 0.41395670032709037 -0.01631844808729536
14208816 0.4110402407171201 -0.018426803672339835
