# HZ S RI R 50
10000000 0.4976342903932654 1.0514109620449026
10001984 0.5008669629367709 1.0489304633858838
10003968 0.5065344671295976 1.0446193189568589
10005952 0.5104294177844965 1.04310518326017
10007936 0.5129535229065962 1.041526591884148
10009920 0.5178879458591034 1.039452273087718
10011904 0.5206207521531454 1.0375467880590319
10013888 0.5238606268276556 1.0352826539157138
10015872 0.5269687093695598 1.0333645011463426
10017856 0.5307225034456418 1.0310029216145271
10019840 0.5338081788901469 1.0280439666949575
10021824 0.5377268851963252 1.026327144687716
10023808 0.5409666829596577 1.0242505600536762
10025792 0.5439682141997404 1.0213800798384174
10027776 0.5479447821690774 1.0191131061320597
10029760 0.551056105099572 1.0171842703304896
10031744 0.554780317000783 1.0142566476415127
10033728 0.5586365578348066 1.0116352509557416
10035712 0.5623573763510626 1.009531077548969
10037696 0.5665370169608112 1.0060838183134482
10039680 0.5702303048848395 1.0043899688306153
10041664 0.5741520990237797 1.0012727794228315
10043648 0.5782854628939752 0.9975430304100198
10045632 0.5827401572529058 0.9952737109160886
10047616 0.5866283340083601 0.9920253483601121
10049600 0.5910101771678661 0.9879425335965666
10051584 0.5957091748254791 0.9853441370703834
10053568 0.5995987652248903 0.982154098280116
10055552 0.6044613548010258 0.9779064663904676
10057536 0.6091173356062488 0.9745454816226421
10059520 0.6133804081070134 0.9703661134324881
10061504 0.6181024183677494 0.9662663458997602
10063488 0.6236558955775275 0.962639403103059
10065472 0.6277501753163699 0.9591360278061175
10067456 0.6328595491148397 0.9542793659287108
10069440 0.6382330907651101 0.9500385420864718
10071424 0.6427415542922797 0.9459446504456772
10073408 0.6484228288114279 0.9409461302711106
10075392 0.6538798072015262 0.9357689824884681
10077376 0.6592243431297552 0.931160006725542
10079360 0.6648712018508907 0.9250604314857616
10081344 0.6706803691714514 0.9204387039959145
10083328 0.6765028253597762 0.9144819158334504
10085312 0.6818064595811192 0.9079836307770182
10087296 0.6878465127269334 0.9023370070504455
10089280 0.693703213185547 0.8961936369434993
10091264 0.6997238202769369 0.8892534531137033
10093248 0.7066534471775164 0.8823687431013701
10095232 0.7119778666837139 0.875512072176927
10097216 0.7185425561518254 0.8680548271337304
10099200 0.7250000308583379 0.8612351772896002
10101184 0.7313778231945456 0.8528184852284181
10103168 0.7377959443562243 0.8438808423425521
10105152 0.7450276932500665 0.836681387306116
10107136 0.7514582031634385 0.8275709900289202
10109120 0.7582861122319535 0.8183996339206917
10111104 0.7655211676757259 0.8091656659909244
10113088 0.7722512471584724 0.7992207671120901
10115072 0.7795726397905511 0.7886075888734356
10117056 0.7866065889477343 0.7775139930118101
10119040 0.7935831666180275 0.7662714960585838
10121024 0.8015409167188384 0.7539323828161419
10123008 0.808309586919069 0.7424284168067546
10124992 0.8154729769949094 0.728877075728433
10126976 0.8230105497003477 0.7157159088816775
10128960 0.8295210817786002 0.7015409841688611
10130944 0.8367232912576911 0.6857657958069253
10132928 0.844156006643459 0.6709733147185825
10134912 0.8502851531571004 0.6550763060135781
10136896 0.8579806111206059 0.6383929165297598
10138880 0.8642893063649952 0.6215601871148917
10140864 0.870561742196881 0.6044395147722529
10142848 0.8770352221066887 0.5847847259931579
10144832 0.8829544703358493 0.5659006657853929
10146816 0.8882064763594498 0.5461600734322976
10148800 0.8936796683233449 0.5247639697372121
10150784 0.8982920382009054 0.5036211450704802
10152768 0.9025814936099822 0.4813807489484833
10154752 0.9056203752284352 0.45805996006420585
10156736 0.9090307834093454 0.4354458119441903
10158720 0.9105656913045097 0.4100104711385239
10160704 0.9127296642141096 0.3849227844353926
10162688 0.9135219486326602 0.3600253915404972
10164672 0.9131488259848419 0.33167048977153635
10166656 0.9123796036557107 0.30357732387110525
10168640 0.9097033408507122 0.27559193201969345
10170624 0.9064682992504176 0.24537326856272942
10172608 0.9015188607242556 0.21455997215275416
10174592 0.8953216740106187 0.1838511798006979
10176576 0.8871137384691309 0.15033325225995214
10178560 0.8779387804676001 0.11818144643401442
10180544 0.8665178281124054 0.08368836726316739
10182528 0.8523940572435668 0.04927265878222183
10184512 0.8374074770972404 0.014337082925953582
10186496 0.8184000676379558 -0.021552788447931445
10188480 0.797417209195543 -0.05780958363504184
10190464 0.7747532216315745 -0.09367175795789218
10192448 0.747914446615045 -0.12985191010720012
10194432 0.7172642629621954 -0.16553058617289015
10196416 0.6854271316084773 -0.19993539360833798
10198400 0.6495792542064475 -0.23384214345804713
10200384 0.5975217909007666 -0.2777486502016368
10202368 0.5547930488393659 -0.30847297142039465
10204352 0.5082814371059494 -0.3359948223834607
10206336 0.45778178266061054 -0.36160920931301804
10208320 0.4257338279601592 -0.3743542773433818
10210304 0.37337991918334534 -0.3936283133864276
10212288 0.31809094312675984 -0.4104834795883213
10214272 0.2613769591172105 -0.4233880574973592
10216256 0.2036873194010844 -0.4309658864520383
10218240 0.14536145965716346 -0.43592238103412956
10220224 0.08595948588684842 -0.43573224706285046
10222208 0.027849612405684634 -0.430576811662008
10224192 -0.03098240278888167 -0.4217228827038767
10226176 -0.08790339021843954 -0.4083890218077876
10228160 -0.14273215454767316 -0.3911542219916748
10230144 -0.1967199400878118 -0.37057687428225583
10232128 -0.2481384585029202 -0.3457395328708961
10234112 -0.2962619755821726 -0.31759071472505546
10236096 -0.34255194955032164 -0.2863600228355105
10238080 -0.3844204986275488 -0.2525055183488283
10240064 -0.42370920313582994 -0.21746535377938886
10242048 -0.4596334198649458 -0.18044487071454232
10244032 -0.49285899289666635 -0.1409255444469596
10246016 -0.5224764475085975 -0.10156534186256103
10248000 -0.5488681886917856 -0.061099351610073314
10249984 -0.5720555814488957 -0.019980007635814933
10251968 -0.5925080844708551 0.020608503927818295
10253952 -0.6092043009990752 0.060841930840040526
10255936 -0.6243443556708017 0.1016575101576188
10257920 -0.6364702848802795 0.14018884451358907
10259904 -0.6461420213344773 0.17905967032145736
10261888 -0.6533023425177777 0.21672449282751732
10263872 -0.6591670393590244 0.253354123514726
10265856 -0.6629622237600385 0.28831053446539434
10267840 -0.665376979815532 0.323679802260563
10269824 -0.66535533458256 0.3557096770440896
10271808 -0.6650100997201063 0.38726738650567133
10273792 -0.663102761831585 0.41865363139592293
10275776 -0.6603435694195626 0.4466031153121823
10277760 -0.6560064638479164 0.47557635326229064
10279744 -0.6518559210789139 0.5013590735372536
10281728 -0.6465790915357387 0.5259964580191948
10283712 -0.64014527792889 0.5510142101786033
10285696 -0.6344114935634135 0.5733110769769358
10287680 -0.6272112965449845 0.5948370012558147
10289664 -0.6199733831155164 0.6158381129308136
10291648 -0.6127660186729794 0.6357359091715143
10293632 -0.6052702825260967 0.6539652327083265
10295616 -0.5971299064553505 0.672217730076073
10297600 -0.5893624874960648 0.688845834234951
10299584 -0.5811796450926127 0.7050478236867549
10301568 -0.5728914764314487 0.7212116544403524
10303552 -0.5649833929882391 0.7356850772730792
10305536 -0.5564669301724573 0.7498289704721444
10307520 -0.5478282664557392 0.7639528175092974
10309504 -0.5400789052205391 0.7766863010525112
10311488 -0.5311839819556027 0.7891344880612693
10313472 -0.5228123536813862 0.801304731408928
10315456 -0.5138170465411352 0.8126149256581735
10317440 -0.5062193534465883 0.8234300957646735
10319424 -0.49737838073604973 0.8344444649637512
10321408 -0.48924464783262517 0.8439334026528021
10323392 -0.4814386712648181 0.8535666479962642
10325376 -0.4727006187468374 0.8628917296452522
10327360 -0.4658637464938643 0.871562525444392
10329344 -0.4571795064495325 0.8801155560087573
10331328 -0.44905150712175573 0.8885358763246165
10333312 -0.4424108855485336 0.8962428279468972
10335296 -0.43363156845034095 0.9033896677801551
10337280 -0.4264468619290789 0.9108193152822146
10339264 -0.41902981329936534 0.9176503507267428
10341248 -0.4115405214169525 0.9242347089476614
10343232 -0.4043012491642761 0.9313556972645886
10345216 -0.3974974365317838 0.9365164722121591
10347200 -0.39017134213005705 0.9432655237208923
10349184 -0.3833860860753792 0.9489604688672504
10351168 -0.37701738957835057 0.9537312423772347
10353152 -0.3692169173925344 0.9594696185599888
10355136 -0.3632010283585952 0.9643279723129842
10357120 -0.3569052865573108 0.9692785579392975
10359104 -0.35018502882895164 0.9740546032002435
10361088 -0.34392359301009395 0.9783959723371443
10363072 -0.33779243514519325 0.9824170987103047
10365056 -0.3311735431034621 0.986959271659187
10367040 -0.3259925216284355 0.9901372141877466
10369024 -0.3200541626503578 0.9944754470906872
10371008 -0.3133810903821739 0.9986834679389964
10372992 -0.3090735867980718 1.0013835690525306
10374976 -0.30223258835003625 1.0055103355174546
10376960 -0.2972097026201311 1.0079983650198348
10378944 -0.29233575742707274 1.0115451880722321
10380928 -0.2859475879133645 1.0146757039127725
10382912 -0.2812228382770034 1.0172116323960647
10384896 -0.27609099160755257 1.0204278273829186
10386880 -0.2704769001687735 1.023003380881587
10388864 -0.2658439333487549 1.0256535998960001
10390848 -0.2607252348193451 1.0283105447260916
10392832 -0.25568107370341886 1.0313339040138212
10394816 -0.25065197907483633 1.0332349672258048
10396800 -0.24617272461853254 1.0357253435005682
10398784 -0.24118577527507976 1.0379866063785934
10400768 -0.23721180083262525 1.040287478251583
10402752 -0.2328719297482409 1.0418289770638005
10404736 -0.22702962354840642 1.0444323438753829
10406720 -0.22257836207803194 1.0462850175984255
10408704 -0.21842665068789857 1.0475991798536675
10410688 -0.21406647460252248 1.0492856429742017
10412672 -0.2093244549015223 1.0514519301241738
10414656 -0.20563142711728102 1.0529012478388373
10416640 -0.20120454101384133 1.0546232364555388
10418624 -0.1970228384091802 1.0552880886530818
10420608 -0.1938733575382221 1.0573222521906722
10422592 -0.1896791459328 1.058246990199632
10424576 -0.1857155577427755 1.0596752073401938
10426560 -0.18277466434939454 1.0604030454104532
10428544 -0.17831311677330272 1.061583812249489
10430528 -0.17413560981532963 1.0627600761174314
10432512 -0.17184065630455087 1.0635010476097124
10434496 -0.16744450265509034 1.0650507480324487
10436480 -0.16469196719592147 1.0651393283953963
10438464 -0.16126944630876722 1.0657535825291802
10440448 -0.15719808099353622 1.0665386986741772
10442432 -0.15465840616559492 1.0669479192989753
10444416 -0.15129251823104292 1.067614963360946
10446400 -0.14728461161290873 1.0679871701013064
10448384 -0.14461276231808995 1.0684044769323175
10450368 -0.14234824162150644 1.0683486990404896
10452352 -0.13806257014412265 1.0691762292489106
10454336 -0.1359935240380719 1.0681655572919961
10456320 -0.1329491755828916 1.0686814539773422
10458304 -0.13014613443716053 1.0687132373916948
10460288 -0.12829871763105333 1.0681987996997888
10462272 -0.12578468316641994 1.0679028722957564
10464256 -0.12366529736092781 1.067725429599067
10466240 -0.12292844738937557 1.067691526194546
10468224 -0.1206561364665148 1.0668903371324758
10470208 -0.1197744004677744 1.0669665212548125
10472192 -0.11941627212002838 1.0671946454415435
10474176 -0.11836600902443419 1.0669028779944008
10476160 -0.11786654027507752 1.0680056276057877
10478144 -0.1180707673372863 1.0689249320833518
10480128 -0.11723234976010331 1.0698299157034856
10482112 -0.11923486914684336 1.0725552782762593
10484096 -0.11870939920577828 1.0748116095483555
10486080 -0.11446648026515284 1.076050555147337
10488064 -0.11385772859158234 1.0781968790908119
10490048 -0.11232063952925184 1.0804357301548546
10492032 -0.1097333830533641 1.0828054140706058
10494016 -0.10780325622714282 1.0848681770919366
10496000 -0.10531294635807968 1.0865585876359845
10497984 -0.1037079950403344 1.0890929744994196
10499968 -0.10081788521059819 1.0905961544961382
10501952 -0.0983813288424979 1.0923215098020616
10503936 -0.09590877772667077 1.094347721228231
10505920 -0.09345616135225963 1.0954749156906831
10507904 -0.09084633713525449 1.0964021661788879
10509888 -0.0878695044351899 1.0980532820686077
10511872 -0.0853513150602413 1.0984790774117854
10513856 -0.08323184507739036 1.09957997362506
10515840 -0.08035285021249093 1.1008612147124783
10517824 -0.07739978817486669 1.1017861915258653
10519808 -0.07541222236588274 1.101988023913236
10521792 -0.07211392630956275 1.103116075803471
10523776 -0.06980253873900283 1.1034562774611625
10525760 -0.06801613040301561 1.1042861561973465
10527744 -0.06537364395297271 1.1047996487188672
10529728 -0.06355183846897022 1.1054401149170745
10531712 -0.06119699935874218 1.1063131584050014
10533696 -0.05860635364937951 1.1067012742144955
10535680 -0.057315573971092625 1.1070301650269532
10537664 -0.05454632711610232 1.1070826144021575
10539648 -0.052136194367264375 1.1078909606088352
10541632 -0.05042942041712639 1.1076120254098758
10543616 -0.04814398754574159 1.107919055091745
10545600 -0.04606650707106203 1.1091398422557486
10547584 -0.0446470861279936 1.1093215992243088
10549568 -0.042983658437476154 1.109334834186116
10551552 -0.04000510045364904 1.1099401512276312
10553536 -0.038462687506367395 1.1100269626674741
10555520 -0.03636919913954566 1.1106495792377062
10557504 -0.034225681478972036 1.1109332818803506
10559488 -0.03312454375488695 1.1110540777843236
10561472 -0.031142438981874798 1.1109688113037266
10563456 -0.02892828255842888 1.1114394150758495
10565440 -0.028116183603267026 1.1115028251212684
10567424 -0.026311247783778267 1.1116660570866952
10569408 -0.024642488258280193 1.1115959101129287
10571392 -0.02235141317388233 1.1123765457683459
10573376 -0.020786006802787853 1.112044092812316
10575360 -0.018776374912592025 1.1126810690999729
10577344 -0.017172675296837497 1.1129707329985883
10579328 -0.016322294026852854 1.112899964098873
10581312 -0.013313372838897098 1.1134126571790732
10583296 -0.01245903542135966 1.1132170997566497
10585280 -0.01130478082539614 1.1137027122646006
10587264 -0.009014526320299678 1.1137964720902667
10589248 -0.008377370754502348 1.1139273392123086
10591232 -0.0066279696457061275 1.1143155433218852
10593216 -0.004734499946898621 1.1146621646841086
10595200 -0.003959268720122431 1.1140377483191846
10597184 -0.001539646131806309 1.1144120643334894
10599168 0.00020096848893339758 1.1148634560989565
10601152 0.0016869973782407245 1.1154235264151293
10603136 0.001995399611358054 1.114605672501264
10605120 0.004151843988596841 1.1155246219878507
10607104 0.004991545405764085 1.1149661884032442
10609088 0.006234485903987544 1.114699350153007
10611072 0.0074688917696303795 1.11574799690966
10613056 0.009043597943437044 1.1153353654494043
10615040 0.011650950306995918 1.1151652646451982
10617024 0.012618939250846296 1.1160363114001828
10619008 0.013630326945672714 1.1154037922709725
10620992 0.014996689750811806 1.1159029104098277
10622976 0.016807718693433577 1.1160956318991693
10624960 0.016693290979436608 1.1156106460461594
10626944 0.01953405387734883 1.1160218170642064
10628928 0.020501888133014668 1.1159264985581092
10630912 0.02179468889730234 1.1161721498289203
10632896 0.02401214603161812 1.1157193610850034
10634880 0.023452421342192924 1.1160436901784976
10636864 0.025432497082486422 1.1161968252050103
10638848 0.026667639441931058 1.1165900359306384
10640832 0.02961114020120149 1.1149443176628477
10642816 0.029319912020737752 1.1162713665073294
10644800 0.029689391086829872 1.1166453922945991
10646784 0.031068198734849242 1.1163452394995697
10648768 0.032236584951087034 1.1167034239146976
10650752 0.033599145435774094 1.1168195342136822
10652736 0.03460920252513197 1.1162914848191294
10654720 0.0367592004293337 1.116953024214708
10656704 0.037033683892613384 1.11674229226324
10658688 0.03813029195384837 1.1165237602234648
10660672 0.04034895928436996 1.116673176600673
10662656 0.04029672486968481 1.116731657416713
10664640 0.04187986521254873 1.1172931812135298
10666624 0.043285978772936676 1.1167061454939056
10668608 0.044321940139706965 1.1173211038034776
10670592 0.04524651932273327 1.1164338748124858
10672576 0.04688400372008879 1.116978754927614
10674560 0.04712996535129879 1.1165095471913402
10676544 0.04830540122306713 1.1168343084092378
10678528 0.0499189710865563 1.1170445419098696
10680512 0.050150288157387646 1.11644997414413
10682496 0.05128937232301502 1.1165511788228746
10684480 0.0531540381781922 1.1167449755284304
10686464 0.054131051209702026 1.1168012302740533
10688448 0.054702891816563876 1.1164546314766377
10690432 0.04902111903752195 1.1210667106661507
10692416 0.050331694738216935 1.1211368057892346
10694400 0.0576148583599037 1.116384128885495
10696384 0.05884051465454645 1.1171612818755179
10698368 0.060230755841367 1.1168643803325677
10700352 0.06056152282308841 1.1165879841644093
10702336 0.06197069563141639 1.116460367648373
10704320 0.06290933783821594 1.117298711866817
10706304 0.06395752617797286 1.115981188587511
10708288 0.06422842942455269 1.116476746506846
10710272 0.06621267750267709 1.117185969535876
10712256 0.06656391690121818 1.1160106522054314
10714240 0.06819719978700518 1.116789206390971
10716224 0.06931670940280613 1.116739016484778
10718208 0.0695898042293554 1.1162550176496473
10720192 0.07166096519768349 1.1164729320819886
10722176 0.07226090413087762 1.1166209714932471
10724160 0.07213240009859197 1.1165860015460929
10726144 0.07369476946078951 1.1162961404662604
10728128 0.07476674287858973 1.116724971800812
10730112 0.07563639154922139 1.1162186579122535
10732096 0.07691767052702755 1.1165401905072867
10734080 0.07724972921926715 1.1160968842200223
10736064 0.07773652953296752 1.1163476995801014
10738048 0.0794890672583956 1.116209525544562
10740032 0.08000382988157033 1.1158714381154669
10742016 0.08051187616551594 1.116098093764983
10744000 0.08226328747628976 1.1163714307679011
10745984 0.08235409579816437 1.1162619936195681
10747968 0.08339789652414584 1.1160204750420033
10749952 0.08454694782980378 1.1163933323286963
10751936 0.08570751088261072 1.115313430730336
10753920 0.08618516355799115 1.1162293690428
10755904 0.08730609849571978 1.1164254015960275
10757888 0.08750630103644763 1.1155605681868803
10759872 0.08912187182981789 1.115988317701321
10761856 0.08997545822240645 1.1161521793279519
10763840 0.09000197488679794 1.1155148684362872
10765824 0.0913362057064491 1.1158895474562656
10767808 0.0917814167446656 1.1159672330169201
10769792 0.0923487197544709 1.1154426344328094
10771776 0.09337676318426287 1.1155062225796288
10773760 0.09445132318294037 1.115171932015968
10775744 0.0952498621481285 1.1152829802193807
10777728 0.09580281575331799 1.1157461256872125
10779712 0.09746006970729842 1.11518052262635
10781696 0.09773889660081614 1.1148245063082827
10783680 0.09812892814985621 1.1155662449664212
10785664 0.09907189418028545 1.114592886418508
10787648 0.09957930332899907 1.1151794965083277
10789632 0.10143352154580408 1.1152974740281962
10791616 0.1019585302384668 1.1144590179273495
10793600 0.1024110405835778 1.1153471440378049
10795584 0.10298329190897222 1.1148946414512981
10797568 0.10435564221267436 1.1143018075267574
10799552 0.10479236894950825 1.115019616419452
10801536 0.10591102391385218 1.1150955882957805
10803520 0.10620443278758769 1.1151692716373969
10805504 0.10677017509075756 1.1139906767015295
10807488 0.10676924210805662 1.1145889426498492
10809472 0.10897546694888338 1.1141467111454126
10811456 0.10910961147113671 1.1139629601005745
10813440 0.11008051367453248 1.1147419454721914
10815424 0.11101695224572708 1.1142983302789191
10817408 0.11177033371853178 1.1140737234616915
10819392 0.11201915153558302 1.1140820788004506
10821376 0.11304827369491496 1.114111058053696
