# MHz S MA R 50
!   freq        S11       
  28.000  0.82586  129.84
  28.010  0.82571  129.06
  28.020  0.82542  128.26
  28.030  0.82516  127.50
  28.040  0.82495  126.77
  28.050  0.82417  125.98
  28.060  0.82416  125.21
  28.070  0.82372  124.42
  28.080  0.82344  123.63
  28.090  0.82318  122.84
  28.101  0.82269  122.05
  28.111  0.82228  121.27
  28.121  0.82176  120.51
  28.131  0.82146  119.73
  28.141  0.82127  118.95
  28.151  0.82081  118.16
  28.161  0.82069  117.33
  28.171  0.82014  116.54
  28.181  0.81982  115.74
  28.191  0.81929  114.96
  28.201  0.81876  114.16
  28.211  0.81826  113.36
  28.221  0.81840  112.57
  28.231  0.81789  111.76
  28.241  0.81731  110.97
  28.251  0.81694  110.15
  28.261  0.81648  109.34
  28.271  0.81630  108.50
  28.281  0.81585  107.71
  28.291  0.81515  106.87
  28.302  0.81466  106.05
  28.312  0.81416  105.25
  28.322  0.81366  104.43
  28.332  0.81267  103.62
  28.342  0.81264  102.80
  28.352  0.81196  101.97
  28.362  0.81138  101.15
  28.372  0.81106  100.31
  28.382  0.81054   99.49
  28.392  0.81003   98.67
  28.402  0.80932   97.85
  28.412  0.80889   97.00
  28.422  0.80804   96.18
  28.432  0.80778   95.35
  28.442  0.80731   94.51
  28.452  0.80679   93.67
  28.462  0.80557   92.84
  28.472  0.80498   91.96
  28.482  0.80466   91.10
  28.492  0.80377   90.26
  28.503  0.80378   89.39
  28.513  0.80258   88.52
  28.523  0.80227   87.68
  28.533  0.80130   86.82
  28.543  0.80080   85.96
  28.553  0.79984   85.11
  28.563  0.79908   84.24
  28.573  0.79863   83.38
  28.583  0.79770   82.50
  28.593  0.79708   81.65
  28.603  0.79624   80.79
  28.613  0.79516   79.92
  28.623  0.79437   79.04
  28.633  0.79357   78.16
  28.643  0.79292   77.25
  28.653  0.79184   76.35
  28.663  0.79108   75.49
  28.673  0.79015   74.58
  28.683  0.78892   73.70
  28.693  0.78828   72.80
  28.704  0.78729   71.92
  28.714  0.78633   71.00
  28.724  0.78504   70.10
  28.734  0.78425   69.21
  28.744  0.78330   68.30
  28.754  0.78162   67.39
  28.764  0.78114   66.50
  28.774  0.77953   65.57
  28.784  0.77864   64.70
  28.794  0.77720   63.75
  28.804  0.77582   62.84
  28.814  0.77483   61.92
  28.824  0.77327   60.99
  28.834  0.77191   60.05
  28.844  0.77047   59.10
  28.854  0.76912   58.20
  28.864  0.76772   57.23
  28.874  0.76584   56.28
  28.884  0.76465   55.35
  28.894  0.76247   54.39
  28.905  0.76128   53.44
  28.915  0.75955   52.47
  28.925  0.75792   51.54
  28.935  0.75613   50.56
  28.945  0.75415   49.60
  28.955  0.75264   48.60
  28.965  0.75053   47.60
  28.975  0.74918   46.65
  28.985  0.74718   45.65
  28.995  0.74505   44.71
  29.005  0.74312   43.68
  29.015  0.74063   42.71
  29.025  0.73871   41.70
  29.035  0.73572   40.70
  29.045  0.73353   39.68
  29.055  0.73094   38.65
  29.065  0.72820   37.66
  29.075  0.72600   36.64
  29.085  0.72294   35.62
  29.095  0.72064   34.60
  29.106  0.71753   33.56
  29.116  0.71475   32.54
  29.126  0.71175   31.47
  29.136  0.70852   30.43
  29.146  0.70576   29.36
  29.156  0.70195   28.32
  29.166  0.69915   27.26
  29.176  0.69533   26.19
  29.186  0.69171   25.12
  29.196  0.68803   24.02
  29.206  0.68373   22.98
  29.216  0.68002   21.85
  29.226  0.67492   20.77
  29.236  0.67123   19.66
  29.246  0.66610   18.56
  29.256  0.66159   17.48
  29.266  0.65673   16.33
  29.276  0.65119   15.24
  29.286  0.64640   14.04
  29.296  0.64025   12.93
  29.307  0.63530   11.79
  29.317  0.62882   10.67
  29.327  0.62263    9.54
  29.337  0.61653    8.33
  29.347  0.60963    7.26
  29.357  0.60305    6.02
  29.367  0.59504    4.93
  29.377  0.58800    3.75
  29.387  0.57963    2.59
  29.397  0.57116    1.48
  29.407  0.56282    0.24
  29.417  0.55337   -0.78
  29.427  0.54458   -2.01
  29.437  0.53448   -3.05
  29.447  0.52482   -4.19
  29.457  0.51400   -5.29
  29.467  0.50311   -6.28
  29.477  0.49148   -7.46
  29.487  0.47962   -8.26
  29.497  0.46739   -9.33
  29.508  0.45458  -10.15
  29.518  0.44162  -10.99
  29.528  0.42738  -11.73
  29.538  0.41381  -12.19
  29.548  0.39899  -12.95
  29.558  0.38527  -13.09
  29.568  0.37002  -13.48
  29.578  0.35535  -13.37
  29.588  0.34069  -13.15
  29.598  0.32519  -12.67
  29.608  0.31248  -11.73
  29.618  0.29702  -10.72
  29.628  0.28573   -9.00
  29.638  0.27308   -7.09
  29.648  0.26305   -4.50
  29.658  0.25529   -1.69
  29.668  0.24810    1.68
  29.678  0.24656    5.02
  29.688  0.24380    8.90
  29.698  0.24702   12.34
  29.709  0.25098   16.01
  29.719  0.25883   19.38
  29.729  0.26885   22.03
  29.739  0.28083   24.81
  29.749  0.29456   26.35
  29.759  0.30979   28.09
  29.769  0.32591   28.90
  29.779  0.34243   29.62
  29.789  0.35952   30.05
  29.799  0.37626   29.93
  29.809  0.39468   29.88
  29.819  0.41084   29.30
  29.829  0.42843   28.79
  29.839  0.44463   27.96
  29.849  0.46077   27.09
  29.859  0.47750   26.08
  29.869  0.49149   24.97
  29.879  0.50762   23.84
  29.889  0.52070   22.64
  29.899  0.53498   21.37
  29.910  0.54757   20.09
  29.920  0.55993   18.79
  29.930  0.57222   17.44
  29.940  0.58267   16.11
  29.950  0.59421   14.73
  29.960  0.60361   13.36
  29.970  0.61362   12.03
  29.980  0.62266   10.69
  29.990  0.63109    9.34
  30.000  0.63951    7.97
