# MHz S MA R 50
!   freq        S11       
  13.650  0.83398  132.11
  13.651  0.83415  131.90
  13.653  0.83438  131.69
  13.654  0.83357  131.51
  13.656  0.83321  131.20
  13.657  0.83303  131.04
  13.658  0.83307  130.84
  13.660  0.83230  130.67
  13.661  0.83225  130.48
  13.663  0.83146  130.29
  13.664  0.83183  130.11
  13.665  0.83183  129.88
  13.667  0.83085  129.73
  13.668  0.83063  129.51
  13.670  0.83075  129.33
  13.671  0.83038  129.14
  13.672  0.82963  128.98
  13.674  0.82959  128.74
  13.675  0.82960  128.55
  13.677  0.82893  128.38
  13.678  0.82871  128.21
  13.679  0.82849  127.98
  13.681  0.82817  127.78
  13.682  0.82749  127.61
  13.684  0.82762  127.36
  13.685  0.82710  127.20
  13.686  0.82711  126.99
  13.688  0.82652  126.81
  13.689  0.82616  126.60
  13.691  0.82534  126.42
  13.692  0.82551  126.20
  13.693  0.82493  126.02
  13.695  0.82477  125.80
  13.696  0.82403  125.62
  13.698  0.82358  125.41
  13.699  0.82358  125.20
  13.701  0.82414  125.09
  13.702  0.82279  124.93
  13.703  0.82279  124.70
  13.705  0.82193  124.51
  13.706  0.82166  124.26
  13.708  0.82127  124.10
  13.709  0.82100  123.88
  13.710  0.81887  123.69
  13.712  0.81991  123.48
  13.713  0.81971  123.23
  13.715  0.81937  123.02
  13.716  0.81891  122.81
  13.717  0.81811  122.61
  13.719  0.81818  122.36
  13.720  0.81778  122.15
  13.722  0.81663  121.95
  13.723  0.81646  121.74
  13.724  0.81623  121.50
  13.726  0.81555  121.29
  13.727  0.81512  121.09
  13.729  0.81463  120.83
  13.730  0.81411  120.62
  13.731  0.81345  120.41
  13.733  0.81328  120.16
  13.734  0.81282  119.93
  13.736  0.81244  119.70
  13.737  0.81111  119.51
  13.738  0.81141  119.25
  13.740  0.81073  119.06
  13.741  0.81010  118.78
  13.743  0.80931  118.56
  13.744  0.80895  118.29
  13.745  0.80793  118.09
  13.747  0.80803  117.84
  13.748  0.80703  117.59
  13.750  0.80654  117.36
  13.751  0.80571  117.12
  13.752  0.80519  116.88
  13.754  0.80444  116.65
  13.755  0.80421  116.39
  13.757  0.80286  116.18
  13.758  0.80307  115.89
  13.759  0.80165  115.69
  13.761  0.80120  115.40
  13.762  0.80037  115.18
  13.764  0.80011  114.89
  13.765  0.79933  114.68
  13.766  0.79819  114.39
  13.768  0.79782  114.10
  13.769  0.79669  113.88
  13.771  0.79629  113.62
  13.772  0.79505  113.37
  13.773  0.79480  113.05
  13.775  0.79378  112.83
  13.776  0.79260  112.53
  13.778  0.79181  112.28
  13.779  0.79132  111.97
  13.780  0.79059  111.75
  13.782  0.78991  111.44
  13.783  0.78819  111.16
  13.785  0.78787  110.88
  13.786  0.78688  110.67
  13.787  0.78584  110.34
  13.789  0.78479  110.05
  13.790  0.78438  109.76
  13.792  0.78273  109.49
  13.793  0.78212  109.18
  13.794  0.78089  108.89
  13.796  0.78012  108.63
  13.797  0.77893  108.34
  13.799  0.77724  108.00
  13.800  0.77666  107.70
  13.802  0.77538  107.45
  13.803  0.77459  107.09
  13.804  0.77329  106.78
  13.806  0.77246  106.47
  13.807  0.77051  106.19
  13.809  0.76982  105.82
  13.810  0.76843  105.59
  13.811  0.76742  105.21
  13.813  0.76602  104.88
  13.814  0.76478  104.56
  13.816  0.76309  104.28
  13.817  0.76157  103.93
  13.818  0.76036  103.58
  13.820  0.75916  103.25
  13.821  0.75759  102.90
  13.823  0.75581  102.57
  13.824  0.75485  102.23
  13.825  0.75306  101.87
  13.827  0.75178  101.52
  13.828  0.75028  101.17
  13.830  0.74894  100.82
  13.831  0.74653  100.46
  13.832  0.74527  100.08
  13.834  0.74375   99.75
  13.835  0.74238   99.36
  13.837  0.74013   98.99
  13.838  0.73798   98.59
  13.839  0.73671   98.26
  13.841  0.73459   97.84
  13.842  0.73271   97.50
  13.844  0.73032   97.09
  13.845  0.72894   96.68
  13.846  0.72697   96.28
  13.848  0.72481   95.85
  13.849  0.72243   95.49
  13.851  0.72098   95.05
  13.852  0.71854   94.66
  13.853  0.71602   94.21
  13.855  0.71379   93.79
  13.856  0.71157   93.38
  13.858  0.70933   92.93
  13.859  0.70724   92.53
  13.860  0.70412   92.05
  13.862  0.70222   91.62
  13.863  0.69881   91.18
  13.865  0.69679   90.75
  13.866  0.69401   90.24
  13.867  0.69178   89.76
  13.869  0.68800   89.35
  13.870  0.68528   88.82
  13.872  0.68268   88.35
  13.873  0.67956   87.87
  13.874  0.67695   87.40
  13.876  0.67333   86.87
  13.877  0.67065   86.31
  13.879  0.66708   85.90
  13.880  0.66435   85.30
  13.881  0.66055   84.80
  13.883  0.65740   84.17
  13.884  0.65415   83.63
  13.886  0.64982   82.93
  13.887  0.64622   82.40
  13.888  0.64311   81.87
  13.890  0.63891   81.20
  13.891  0.63555   80.70
  13.893  0.62982   80.06
  13.894  0.62674   79.53
  13.895  0.62262   78.98
  13.897  0.61877   78.38
  13.898  0.61372   77.87
  13.900  0.60937   77.15
  13.901  0.60371   76.53
  13.903  0.59889   75.79
  13.904  0.59336   75.27
  13.905  0.58814   74.52
  13.907  0.58328   73.87
  13.908  0.57782   73.23
  13.910  0.57279   72.49
  13.911  0.56734   71.85
  13.912  0.56170   71.05
  13.914  0.55598   70.37
  13.915  0.54998   69.61
  13.917  0.54431   68.86
  13.918  0.53781   68.13
  13.919  0.53211   67.38
  13.921  0.52665   66.72
  13.922  0.52038   65.81
  13.924  0.51397   65.10
  13.925  0.50774   64.21
  13.926  0.50131   63.39
  13.928  0.49353   62.53
  13.929  0.48729   61.59
  13.931  0.47902   60.71
  13.932  0.47151   59.65
  13.933  0.46380   58.88
  13.935  0.45550   57.87
  13.936  0.44778   56.98
  13.938  0.43975   55.97
  13.939  0.43220   54.97
  13.940  0.42429   54.09
  13.942  0.41601   53.00
  13.943  0.40836   52.09
  13.945  0.39850   50.87
  13.946  0.38999   49.85
  13.947  0.38021   48.72
  13.949  0.37324   47.66
  13.950  0.36377   46.69
  13.952  0.35423   45.25
  13.953  0.34514   44.07
  13.954  0.33508   42.75
  13.956  0.32613   41.50
  13.957  0.31545   40.13
  13.959  0.30641   38.69
  13.960  0.29615   37.37
  13.961  0.28630   35.64
  13.963  0.27674   34.34
  13.964  0.26646   32.74
  13.966  0.25709   31.40
  13.967  0.24556   29.60
  13.968  0.23619   27.67
  13.970  0.22539   25.86
  13.971  0.21398   23.42
  13.973  0.20429   21.52
  13.974  0.19305   18.74
  13.975  0.18314   16.47
  13.977  0.17209   13.47
  13.978  0.16261   10.56
  13.980  0.15237    7.30
  13.981  0.14182    3.08
  13.982  0.13299   -0.40
  13.984  0.12356   -5.61
  13.985  0.11488  -10.35
  13.987  0.10678  -16.61
  13.988  0.10055  -23.32
  13.989  0.09437  -30.44
  13.991  0.08992  -39.33
  13.992  0.08713  -47.31
  13.994  0.08619  -57.20
  13.995  0.08623  -65.73
  13.996  0.08906  -75.45
  13.998  0.09338  -83.13
  13.999  0.09794  -91.11
  14.001  0.10573  -98.36
  14.002  0.11233 -104.01
  14.004  0.12192 -109.71
  14.005  0.12974 -114.25
  14.006  0.13976 -118.75
  14.008  0.14952 -122.19
  14.009  0.15873 -125.88
  14.011  0.17045 -128.99
  14.012  0.17918 -131.86
  14.013  0.19038 -134.50
  14.015  0.19988 -136.95
  14.016  0.21125 -139.42
  14.018  0.22208 -141.30
  14.019  0.23196 -143.40
  14.020  0.24350 -145.45
  14.022  0.25271 -147.15
  14.023  0.26392 -148.80
  14.025  0.27321 -150.48
  14.026  0.28442 -152.06
  14.027  0.29404 -153.49
  14.029  0.30372 -155.04
  14.030  0.31499 -156.50
  14.032  0.32367 -157.82
  14.033  0.33393 -159.14
  14.034  0.34269 -160.42
  14.036  0.35253 -161.73
  14.037  0.36171 -162.81
  14.039  0.37058 -164.04
  14.040  0.38002 -165.24
  14.041  0.38790 -166.24
  14.043  0.39760 -167.41
  14.044  0.40550 -168.40
  14.046  0.41461 -169.57
  14.047  0.42325 -170.47
  14.048  0.43122 -171.49
  14.050  0.43940 -172.49
  14.051  0.44653 -173.38
  14.053  0.45514 -174.38
  14.054  0.46270 -175.34
  14.055  0.46982 -176.29
  14.057  0.47761 -177.10
  14.058  0.48393 -178.02
  14.060  0.49219 -178.91
  14.061  0.49788 -179.67
  14.062  0.50515  179.49
  14.064  0.51116  178.66
  14.065  0.51746  177.89
  14.067  0.52366  177.18
  14.068  0.52964  176.31
  14.069  0.53679  175.48
  14.071  0.54192  174.80
  14.072  0.54821  174.05
  14.074  0.55345  173.35
  14.075  0.55978  172.57
  14.076  0.56505  171.93
  14.078  0.56966  171.21
  14.079  0.57577  170.47
  14.081  0.58023  169.84
  14.082  0.58546  169.16
  14.083  0.59014  168.53
  14.085  0.59510  167.85
  14.086  0.59965  167.22
  14.088  0.60398  166.63
  14.089  0.60868  165.95
  14.090  0.61286  165.41
  14.092  0.61742  164.74
  14.093  0.62107  164.20
  14.095  0.62481  163.58
  14.096  0.62894  163.01
  14.097  0.63257  162.51
  14.099  0.63690  161.83
  14.100  0.63981  161.36
  14.102  0.64369  160.77
  14.103  0.64689  160.31
  14.105  0.64995  159.72
  14.106  0.65400  159.25
  14.107  0.65763  158.70
  14.109  0.66064  158.16
  14.110  0.66356  157.64
  14.112  0.66712  157.18
  14.113  0.67042  156.68
  14.114  0.67348  156.15
  14.116  0.67661  155.65
  14.117  0.67911  155.22
  14.119  0.68228  154.68
  14.120  0.68484  154.26
  14.121  0.68772  153.79
  14.123  0.69051  153.31
  14.124  0.69268  152.89
  14.126  0.69566  152.42
  14.127  0.69774  152.02
  14.128  0.70051  151.50
  14.130  0.70267  151.15
  14.131  0.70540  150.65
  14.133  0.70797  150.28
  14.134  0.70993  149.81
  14.135  0.71198  149.44
  14.137  0.71450  149.00
  14.138  0.71694  148.60
  14.140  0.71829  148.21
  14.141  0.72022  147.79
  14.142  0.72290  147.39
  14.144  0.72444  147.06
  14.145  0.72696  146.61
  14.147  0.72829  146.27
  14.148  0.73046  145.82
  14.149  0.73204  145.53
  14.151  0.73396  145.12
  14.152  0.73580  144.77
  14.154  0.73747  144.37
  14.155  0.73935  144.01
  14.156  0.74096  143.67
  14.158  0.74257  143.31
  14.159  0.74382  142.96
  14.161  0.74591  142.60
  14.162  0.74744  142.22
  14.163  0.74824  141.89
  14.165  0.75050  141.56
  14.166  0.75158  141.23
  14.168  0.75317  140.88
  14.169  0.75482  140.56
  14.170  0.75593  140.23
  14.172  0.75724  139.89
  14.173  0.75840  139.60
  14.175  0.75991  139.24
  14.176  0.76125  138.96
  14.177  0.76254  138.60
  14.179  0.76351  138.34
  14.180  0.76470  137.97
  14.182  0.76596  137.72
  14.183  0.76725  137.39
  14.184  0.76822  137.10
  14.186  0.76933  136.77
  14.187  0.77029  136.50
  14.189  0.77169  136.18
  14.190  0.77224  135.91
  14.191  0.77381  135.56
  14.193  0.77465  135.34
  14.194  0.77572  134.99
  14.196  0.77673  134.77
  14.197  0.77782  134.43
  14.198  0.77877  134.19
  14.200  0.77989  133.88
  14.201  0.78082  133.62
  14.203  0.78158  133.32
  14.204  0.78227  133.08
  14.206  0.78343  132.77
  14.207  0.78438  132.52
  14.208  0.78541  132.24
  14.210  0.78564  131.99
  14.211  0.78688  131.70
  14.213  0.78803  131.48
  14.214  0.78866  131.16
  14.215  0.78970  130.92
  14.217  0.78943  130.66
  14.218  0.79079  130.42
  14.220  0.79194  130.14
  14.221  0.79253  129.88
  14.222  0.79283  129.64
  14.224  0.79417  129.38
  14.225  0.79449  129.13
  14.227  0.79550  128.89
  14.228  0.79592  128.65
  14.229  0.79677  128.40
  14.231  0.79712  128.15
  14.232  0.79817  127.92
  14.234  0.79845  127.67
  14.235  0.79957  127.44
  14.236  0.79973  127.20
  14.238  0.80087  126.94
  14.239  0.80139  126.71
  14.241  0.80183  126.48
  14.242  0.80226  126.27
  14.243  0.80315  126.00
  14.245  0.80339  125.79
  14.246  0.80400  125.55
  14.248  0.80468  125.33
  14.249  0.80567  125.11
  14.250  0.80584  124.86
  14.252  0.80653  124.64
  14.253  0.80693  124.45
  14.255  0.80790  124.21
  14.256  0.80818  124.00
  14.257  0.80858  123.75
  14.259  0.80895  123.52
  14.260  0.80942  123.31
  14.262  0.81023  123.13
  14.263  0.81076  122.88
  14.264  0.81082  122.64
  14.266  0.81160  122.46
  14.267  0.81185  122.26
  14.269  0.81249  122.02
  14.270  0.81272  121.80
  14.271  0.81323  121.62
  14.273  0.81376  121.40
  14.274  0.81424  121.17
  14.276  0.81419  120.96
  14.277  0.81501  120.79
  14.278  0.81528  120.58
  14.280  0.81592  120.35
  14.281  0.81624  120.13
  14.283  0.81652  119.98
  14.284  0.81690  119.74
  14.285  0.81802  119.56
  14.287  0.81758  119.33
  14.288  0.81798  119.15
  14.290  0.81862  118.94
  14.291  0.81947  118.76
  14.292  0.81945  118.54
  14.294  0.82039  118.33
  14.295  0.81992  118.13
  14.297  0.82078  117.96
  14.298  0.82075  117.78
  14.299  0.82138  117.58
  14.301  0.82157  117.38
  14.302  0.82223  117.16
  14.304  0.82179  117.00
  14.305  0.82288  116.80
  14.307  0.82277  116.61
  14.308  0.82304  116.41
  14.309  0.82345  116.21
  14.311  0.82384  116.04
  14.312  0.82385  115.86
  14.314  0.82446  115.65
  14.315  0.82488  115.46
  14.316  0.82560  115.28
  14.318  0.82519  115.10
  14.319  0.82558  114.90
  14.321  0.82625  114.72
  14.322  0.82576  114.57
  14.323  0.82642  114.36
  14.325  0.82655  114.18
  14.326  0.82703  113.98
  14.328  0.82706  113.82
  14.329  0.82762  113.62
  14.330  0.82748  113.46
  14.332  0.82847  113.25
  14.333  0.82830  113.11
  14.335  0.82895  112.92
  14.336  0.82879  112.74
  14.337  0.82958  112.54
  14.339  0.82920  112.41
  14.340  0.83027  112.19
  14.342  0.82981  112.03
  14.343  0.83037  111.85
  14.344  0.83008  111.70
  14.346  0.83103  111.50
  14.347  0.83119  111.35
  14.349  0.83143  111.13
  14.350  0.83092  110.99
