# MHz S MA R 50
!   freq        S11       
  13.500  1.25424  122.69
  13.515  1.24677  120.87
  13.530  1.24106  119.24
  13.545  1.23077  117.47
  13.560  1.29980  113.06
  13.575  1.29009  111.21
  13.590  1.28214  109.41
  13.605  1.27115  107.58
  13.620  1.26007  105.84
  13.635  1.24798  104.05
  13.650  1.23766  102.17
  13.665  1.22526  100.44
  13.680  1.21160   98.57
  13.695  1.19789   96.83
  13.710  1.18156   95.10
  13.725  1.16785   93.31
  13.740  1.15264   91.41
  13.755  1.13596   89.53
  13.770  1.12073   87.56
  13.785  1.10516   85.55
  13.800  1.08838   83.46
  13.815  1.07164   81.31
  13.830  1.05362   79.09
  13.845  1.03432   76.71
  13.860  1.01418   74.26
  13.875  0.99070   71.72
  13.890  0.96677   68.90
  13.905  0.94142   65.85
  13.920  0.91257   62.55
  13.935  0.87984   58.92
  13.950  0.84290   54.83
  13.965  0.80007   50.17
  13.980  0.74952   44.84
  13.995  0.68838   38.64
  14.010  0.61515   31.04
  14.025  0.52613   21.47
  14.040  0.41998    8.34
  14.055  0.29969  -12.18
  14.070  0.19578  -52.52
  14.085  0.21305 -116.90
  14.100  0.34740 -156.54
  14.115  0.51210 -178.93
  14.130  0.65926  164.87
  14.145  0.77610  152.05
  14.160  0.86637  141.33
  14.175  0.92779  132.57
  14.190  0.97310  124.99
  14.205  1.00275  118.66
  14.220  1.02253  113.10
  14.235  1.03493  108.27
  14.250  1.04211  104.07
  14.265  1.04651  100.21
  14.280  1.04779   96.87
  14.295  1.04837   93.72
  14.310  1.04686   90.86
  14.325  1.04524   88.19
  14.340  1.04219   85.74
  14.355  1.03811   83.47
  14.370  1.03433   81.24
  14.385  1.03125   79.19
  14.400  1.02737   77.16
  14.415  1.02355   75.35
  14.430  1.01910   73.53
  14.445  1.01469   71.81
  14.460  1.01033   70.15
  14.475  1.00662   68.52
  14.490  1.00265   66.96
  14.505  0.99836   65.42
  14.520  0.99440   63.92
  14.535  0.99143   62.44
  14.550  0.98768   60.99
  14.565  0.98391   59.63
  14.580  0.98052   58.24
  14.595  0.97684   56.91
  14.610  0.97326   55.56
  14.625  0.97009   54.23
  14.640  0.96708   52.95
  14.655  0.96398   51.66
  14.670  0.96076   50.47
  14.685  0.95779   49.22
  14.700  0.95511   47.96
  14.715  0.95211   46.74
  14.730  0.94944   45.52
  14.745  0.94703   44.34
  14.760  0.94454   43.20
  14.775  0.94124   42.09
  14.790  0.93893   41.01
  14.805  0.93614   39.85
  14.820  0.93329   38.77
  14.835  0.93133   37.68
  14.850  0.92907   36.56
  14.865  0.92668   35.50
  14.880  0.92475   34.38
  14.895  0.92280   33.32
  14.910  0.92073   32.25
  14.925  0.91889   31.16
  14.940  0.91727   30.09
  14.955  0.91581   29.02
  14.970  0.91401   27.99
  14.985  0.91253   26.90
  15.000  0.91041   25.89
