# MHz S MA R 50
!   freq        S11       
  13.500  1.25411  122.65
  13.515  1.24705  120.90
  13.530  1.24076  119.27
  13.545  1.23137  117.44
  13.560  1.30027  113.06
  13.575  1.29083  111.20
  13.590  1.28247  109.38
  13.605  1.27207  107.56
  13.620  1.26005  105.82
  13.635  1.24843  104.05
  13.650  1.23809  102.18
  13.665  1.22589  100.40
  13.680  1.21231   98.54
  13.695  1.19838   96.81
  13.710  1.18187   95.10
  13.725  1.16744   93.29
  13.740  1.15230   91.39
  13.755  1.13629   89.51
  13.770  1.12080   87.56
  13.785  1.10559   85.53
  13.800  1.08863   83.44
  13.815  1.07202   81.29
  13.830  1.05374   79.07
  13.845  1.03453   76.69
  13.860  1.01423   74.26
  13.875  0.99084   71.70
  13.890  0.96693   68.89
  13.905  0.94154   65.84
  13.920  0.91255   62.53
  13.935  0.87976   58.93
  13.950  0.84285   54.79
  13.965  0.80010   50.17
  13.980  0.74946   44.84
  13.995  0.68856   38.67
  14.010  0.61534   31.03
  14.025  0.52634   21.48
  14.040  0.42024    8.33
  14.055  0.29957  -12.06
  14.070  0.19603  -52.39
  14.085  0.21278 -116.94
  14.100  0.34697 -156.53
  14.115  0.51230 -178.91
  14.130  0.65758  164.93
  14.145  0.77658  152.07
  14.160  0.86517  141.41
  14.175  0.92881  132.55
  14.190  0.97344  124.98
  14.205  1.00248  118.68
  14.220  1.02249  113.07
  14.235  1.03499  108.31
  14.250  1.04261  104.05
  14.265  1.04656  100.24
  14.280  1.04757   96.85
  14.295  1.04795   93.72
  14.310  1.04712   90.86
  14.325  1.04523   88.17
  14.340  1.04188   85.73
  14.355  1.03819   83.45
  14.370  1.03516   81.23
  14.385  1.03080   79.19
  14.400  1.02714   77.17
  14.415  1.02349   75.33
  14.430  1.01921   73.50
  14.445  1.01454   71.78
  14.460  1.01034   70.11
  14.475  1.00680   68.52
  14.490  1.00259   66.94
  14.505  0.99831   65.43
  14.520  0.99403   63.92
  14.535  0.99134   62.43
  14.550  0.98729   60.98
  14.565  0.98393   59.59
  14.580  0.98078   58.25
  14.595  0.97685   56.88
  14.610  0.97347   55.54
  14.625  0.97020   54.23
  14.640  0.96747   52.93
  14.655  0.96364   51.69
  14.670  0.96042   50.42
  14.685  0.95770   49.20
  14.700  0.95483   47.94
  14.715  0.95237   46.72
  14.730  0.94958   45.51
  14.745  0.94730   44.35
  14.760  0.94453   43.21
  14.775  0.94146   42.10
  14.790  0.93890   40.99
  14.805  0.93650   39.84
  14.820  0.93370   38.77
  14.835  0.93118   37.65
  14.850  0.92899   36.55
  14.865  0.92675   35.50
  14.880  0.92512   34.38
  14.895  0.92283   33.32
  14.910  0.92107   32.23
  14.925  0.91906   31.16
  14.940  0.91745   30.07
  14.955  0.91564   29.05
  14.970  0.91375   27.98
  14.985  0.91260   26.92
  15.000  0.91054   25.90
