# HZ S RI R 50
13500000 -0.5456021312934306 0.6957037724065722
13500991 -0.5440332857300503 0.6967074038438654
13501982 -0.542585317274502 0.6970197064783531
13502973 -0.541707725085696 0.6979447199366621
13503964 -0.5404496780506551 0.6988174309214249
13504955 -0.5390573454089551 0.7001069002848083
13505946 -0.5380915843979126 0.7009756554503871
13506937 -0.5368972278343332 0.7022822856387305
13507928 -0.5359736380948665 0.7029601412382975
13508919 -0.5343838441587331 0.7036418668972374
13509910 -0.5335551255274741 0.7044900630593623
13510901 -0.5322997718666577 0.7054762196747311
13511892 -0.531225333711426 0.7065993228888411
13512883 -0.5296447334171182 0.7072170948885699
13513874 -0.5285597963385122 0.7080619671931785
13514865 -0.5279863808414593 0.7087568064028422
13515856 -0.5267192925846829 0.7095463064473597
13516847 -0.5253879038259242 0.7103819439763596
13517838 -0.52416432847131 0.7117547638858392
13518829 -0.5232322222147403 0.7127654047811715
13519820 -0.5213268972069278 0.7133212767067492
13520811 -0.5207431619647721 0.7140332142237558
13521802 -0.5199408267262724 0.7149839141976472
13522793 -0.5182092631283275 0.7158752538206822
13523784 -0.5171856733201226 0.7168818483437643
13524775 -0.5156811607046025 0.7177759718863349
13525766 -0.5144953554757626 0.718859307542345
13526757 -0.5133366839756054 0.719570288088313
13527748 -0.5121923576042963 0.720378900072122
13528739 -0.5110602412276288 0.7212265921308043
13529730 -0.5099578688868501 0.7220737607659673
13530721 -0.508575149104729 0.7231657136727453
13531712 -0.5072311783258835 0.7243010109653931
13532703 -0.5064107186500822 0.7248227567898525
13533694 -0.5047110317543269 0.7253411384357328
13534685 -0.504010337434337 0.7259777323245324
13535676 -0.5029083253652027 0.7269817329140975
13536667 -0.5013023105539385 0.7278390323086619
13537658 -0.5002463435726074 0.7288531462431695
13538649 -0.49893275295910905 0.7298567238998369
13539640 -0.4976605788523959 0.7305197220629852
13540631 -0.49639648114847457 0.7309901435826829
13541622 -0.49531232324708113 0.7322884712807813
13542613 -0.4942135354990846 0.7331836160763884
13543604 -0.49276462659171655 0.73402660200678
13544595 -0.48980151775337366 0.7355868725546425
13545586 -0.49044769935762417 0.7360131839536838
13546577 -0.4886838865397571 0.7363781056407988
13547568 -0.487464428035586 0.7368552467640939
13548559 -0.48672255250216245 0.7377589912300682
13549550 -0.4854660399621497 0.7393459661749563
13550541 -0.4842153933108515 0.7400659611302755
13551532 -0.48270354910748225 0.7408433320862079
13552523 -0.4812673242411027 0.7413460865265074
13553514 -0.4801087851902029 0.7419768898633351
13554505 -0.4789848288603007 0.742731223593987
13555496 -0.47776920715294113 0.7441300422376442
13556487 -0.4766969259649757 0.7449093112785569
13557478 -0.4750698200930709 0.7455655426928222
13558469 -0.4736834794345667 0.7468707528296687
13559460 -0.47245717009716043 0.7472162738136685
13560451 -0.47187174740103477 0.7480212194788065
13561442 -0.470147099709471 0.7488081791334674
13562433 -0.468661280402314 0.7496533460798369
13563424 -0.46730078419578447 0.7507871423443886
13564415 -0.4661296003908926 0.7515273306959734
13565406 -0.46481562254922715 0.7519047103710021
13566397 -0.4632771916700797 0.7532330602788123
13567388 -0.46256400049070345 0.7538070997066867
13568379 -0.46119268316953277 0.7541155450694007
13569370 -0.4593303703529546 0.7557258122858505
13570361 -0.4585493681128721 0.7563159871185307
13571352 -0.45710109076262734 0.7570161183288965
13572343 -0.45600875413764097 0.7580453545246512
13573334 -0.45421281436571703 0.7586845443192839
13574325 -0.45359203490698996 0.759449752783392
13575316 -0.4516668373287744 0.7600305264442814
13576307 -0.4505008984471894 0.760831044958789
13577298 -0.44861985357604567 0.7619479885681254
13578289 -0.4479710878186142 0.7625846845717559
13579280 -0.44660778877095914 0.7632687689628815
13580271 -0.44530506413477766 0.7638885309240907
13581262 -0.44371861698019976 0.7649686715312682
13582253 -0.4425868874089051 0.7655745698371496
13583244 -0.44109881140805135 0.7666371121714369
13584235 -0.43989531404542437 0.7670842317126103
13585226 -0.4388434433126637 0.7680820479487475
13586217 -0.43741563312259074 0.7686400973430287
13587208 -0.4359016319835816 0.7696371012373053
13588199 -0.43452475321672696 0.7704214174649374
13589190 -0.43323910808639593 0.7711290832858543
13590181 -0.4319331140613917 0.7719511043118268
13591172 -0.43038190278386573 0.7728957721580539
13592163 -0.42933958460043237 0.7731752335877701
13593154 -0.4279668545587857 0.7741892815583552
13594145 -0.42614297414581037 0.7749482911314127
13595136 -0.425062142152775 0.7755614300968763
13596127 -0.4234674104322724 0.7764908135694638
13597118 -0.4219185693148214 0.7773953052312145
13598109 -0.4206521736517212 0.7780040569575873
13599100 -0.4194444470814416 0.7787894761597125
13600091 -0.4179536925275631 0.7786585326415398
13601082 -0.41714816337767224 0.7804422423240471
13602073 -0.4151659969901696 0.7806322241040877
13603064 -0.4137233303628487 0.7817514027865045
13604055 -0.41284028539513173 0.7824193929994608
13605046 -0.4112513352801301 0.7828602570430625
13606037 -0.40904455660057604 0.7835286169176129
13607028 -0.4082543870581325 0.784399891317723
13608019 -0.4069864035560188 0.7855667528199709
13609010 -0.4051229009012988 0.786085885872648
13610001 -0.40376375952596694 0.7869134910587076
13610992 -0.40258840507474536 0.7878810761923489
13611983 -0.4014566930603604 0.788051970095484
13612974 -0.39967198197805187 0.7889814155548944
13613965 -0.3985690136975318 0.7896694871294168
13614956 -0.3974214921005915 0.7905095202539134
13615947 -0.39539097947176716 0.7912815545262742
13616938 -0.39353116752757117 0.7919084390138903
13617929 -0.39259075349726447 0.7928336239409394
13618920 -0.3914578530748514 0.793068798907463
13619911 -0.3899316294520289 0.7941353257080795
13620902 -0.3886916449050495 0.7949451951668709
13621893 -0.3871075261914651 0.7951148384455385
13622884 -0.38527541913656876 0.7961824645087328
13623875 -0.38333155859153895 0.7969845505584259
13624866 -0.382489621085785 0.7977099940886796
13625857 -0.38097212560295224 0.7982264381269638
13626848 -0.37961458700751094 0.7987317247714146
13627839 -0.37816026461240543 0.7994806840494546
13628830 -0.37628822854197447 0.8002537448081862
13629821 -0.37501477687075174 0.8009247010302727
13630812 -0.3734297262441456 0.8020612022176142
13631803 -0.3725904919327006 0.8024961117906588
13632794 -0.3705904075179964 0.803218723936302
13633785 -0.36931466731064966 0.8036527833891558
13634776 -0.36785546959877463 0.804377140577933
13635767 -0.366512189567945 0.805228749781311
13636758 -0.3648539641184366 0.8060195699274373
13637749 -0.3631666271458051 0.8065990121042051
13638740 -0.3617794430901322 0.8074729255301951
13639731 -0.36033119141854353 0.8075682158595004
13640722 -0.3587362023539334 0.8084223163498524
13641713 -0.35689432990141934 0.809457329985866
13642704 -0.35561389149836925 0.8102453877274364
13643695 -0.3541642499557014 0.8106903793791661
13644686 -0.35222229733312815 0.8109497355111762
13645677 -0.35092287354513657 0.8119170171555451
13646668 -0.34972496637852163 0.8122647008679321
13647659 -0.34804742785602166 0.8129493920606053
13648650 -0.34644870829234664 0.8140684524376172
13649641 -0.34474033060368964 0.8145926297840899
13650632 -0.3433956531387202 0.8151785655085044
13651623 -0.3414986345281691 0.8158891490253953
13652614 -0.34062265942116055 0.8164629644608284
13653605 -0.3389753198521937 0.8165612192341206
13654596 -0.33737821256762623 0.8175201294159945
13655587 -0.3356750152903215 0.8185282875774743
13656578 -0.334057828008508 0.8191765727361046
13657569 -0.33259682276656555 0.819682949297963
13658560 -0.3309319977944594 0.8200759759139685
13659551 -0.3296857760973348 0.8207961905381052
13660542 -0.3279180289801689 0.821067587053025
13661533 -0.33261388256630414 0.821277267366386
13662524 -0.32478833912580446 0.8226501287774823
13663515 -0.32317102738714804 0.8234695617617352
13664506 -0.32159420872920236 0.8239390945681654
13665497 -0.31937646831466826 0.8246953370457639
13666488 -0.31807290192627613 0.8255175549762924
13667479 -0.31652091813295485 0.8254637339235296
13668470 -0.3150141175306381 0.8260729050868454
13669461 -0.31349318074368515 0.827473751814908
13670452 -0.3120257524711871 0.82789216566174
13671443 -0.3101232087470157 0.8286868414705911
13672434 -0.3083629229624124 0.8287010369655967
13673425 -0.3071704462526588 0.8296016046629048
13674416 -0.3053223886339473 0.8295048148441461
13675407 -0.3038961227692243 0.83022023672205
13676398 -0.30183225217112936 0.8310903798374205
13677389 -0.3007520862384866 0.8317130477061336
13678380 -0.29874353045181806 0.831968828520588
13679371 -0.2970927476785055 0.8327944853798406
13680362 -0.2957377591961712 0.8334201372686869
13681353 -0.29413756858980333 0.8336228636553382
13682344 -0.2919991488425352 0.8342955713272426
13683335 -0.29048895893630544 0.8353657198110492
13684326 -0.28909413784721166 0.8359244068686827
13685317 -0.2872467214121686 0.836551600296667
13686308 -0.2855343023915816 0.836712191721782
13687299 -0.2837616375022833 0.8375505077819217
13688290 -0.28214444276798134 0.8378123301922368
13689281 -0.2806495359509714 0.8383249719996115
13690272 -0.27854460629313577 0.8391879945929893
13691263 -0.2773355874643021 0.8397015781706119
13692254 -0.27532878968075375 0.840329533165504
13693245 -0.2739534186289446 0.8403181075951847
13694236 -0.2720296574257682 0.8407517548996555
13695227 -0.2708651984448667 0.8414926891604375
13696218 -0.2685826107162219 0.8422883642345316
13697209 -0.266845005755938 0.8427302467903093
13698200 -0.26512356374021495 0.8433631362797068
13699191 -0.2632073727950058 0.8433995979614687
13700182 -0.26209047299290783 0.8446982962946405
13701173 -0.2601139152828077 0.8453367716941231
13702164 -0.2579940310432909 0.8458379785494907
13703155 -0.25633923723467983 0.8458793363160544
13704146 -0.254690567224679 0.8461672796112734
13705137 -0.2529411474882394 0.8459442956937454
13706128 -0.25102161869062456 0.8471430461398758
13707119 -0.24938231395591268 0.847734242035763
13708110 -0.24794507976317084 0.8483196012054801
13709101 -0.2459421094284696 0.8487186454830514
13710092 -0.24432720487772466 0.8492319537234826
13711083 -0.24243905269042648 0.8495849805496325
13712074 -0.2406964656955668 0.8500399530212889
13713065 -0.23873551669944088 0.8506997788858794
13714056 -0.23701913532871846 0.8513493689687921
13715047 -0.23566194023165718 0.8517800879610582
13716038 -0.23394583544920755 0.8522262027474738
13717029 -0.2317769470832244 0.8527046758528417
13718020 -0.22998826941700024 0.8527024489984161
13719011 -0.22788305771603595 0.8532342909215254
13720002 -0.22614073001381332 0.8540017624008307
13720993 -0.22429788441203938 0.8546761918596145
13721984 -0.2226078253359604 0.8548236345379425
13722975 -0.2203852502516129 0.8548275924240387
13723966 -0.21922186946680366 0.8553391906523968
13724957 -0.21714767610155938 0.8559778945433072
13725948 -0.2153058894935999 0.8561309555722594
13726939 -0.2133192135988971 0.8567818365270364
13727930 -0.2113790063015679 0.8572190871842218
13728921 -0.20994777222069502 0.8575283002241575
13729912 -0.20750860648231417 0.8579946859880576
13730903 -0.20581134697329848 0.8582500021370227
13731894 -0.20371294034900203 0.8592654747245531
13732885 -0.20234073887612017 0.8593545331044292
13733876 -0.1978812346177607 0.8591380612930741
13734867 -0.19823486985858219 0.8601195012164694
13735858 -0.19662682969748255 0.8608570095562801
13736849 -0.1947570574621996 0.8608846392632794
13737840 -0.19248775251613856 0.8614678458900213
13738831 -0.1906924249472904 0.8618314443065725
13739822 -0.1891729631853493 0.8622519681920109
13740813 -0.1869823354833615 0.8624606311394708
13741804 -0.18528228109966108 0.8629880655799403
13742795 -0.18330287813196577 0.8626549092716006
13743786 -0.18094307155687236 0.8632415676244003
13744777 -0.1791328377939999 0.863600777814863
13745768 -0.17724073028626364 0.8646697115347814
13746759 -0.175414896159415 0.8643593719084663
13747750 -0.1731458718643007 0.8646398536859459
13748741 -0.17123726196341324 0.8652228924792095
13749732 -0.1695405591860422 0.8652499584114887
13750723 -0.1674671204312203 0.8656321646693877
13751714 -0.16519943740148468 0.8661455555294156
13752705 -0.16364579038123314 0.8667232172507616
13753696 -0.16108423483006715 0.8666850289064177
13754687 -0.15968159324595557 0.867050165378881
13755678 -0.1575029204849029 0.8672109919586816
13756669 -0.1556525266033353 0.8676697853565455
13757660 -0.153773968785914 0.8678949342034128
13758651 -0.15130722245544187 0.8682468794451387
13759642 -0.1495102716225962 0.868411820766638
13760633 -0.14762558193606226 0.8686724555756955
13761624 -0.14537907244326778 0.8689803441368398
13762615 -0.14317564428036353 0.8693403172643346
13763606 -0.14127961794867325 0.86946608451963
13764597 -0.1387031274436721 0.8696479799035943
13765588 -0.13686122567054332 0.8701915329619119
13766579 -0.13483480497328826 0.8704252209582677
13767570 -0.1331001652531344 0.8704514533470702
13768561 -0.13067787684558937 0.8708218942093825
13769552 -0.12906280257328887 0.8710210241396351
13770543 -0.12688524955880423 0.8714713589234582
13771534 -0.12486006179349536 0.8715189524945257
13772525 -0.12251081012252235 0.8718869289138561
13773516 -0.12024131218870196 0.8720485631210861
13774507 -0.11859806146943684 0.8718558560603035
13775498 -0.11630569213925326 0.87208443759547
13776489 -0.11381580387483567 0.872623615174455
13777480 -0.11217952615988866 0.872797973577211
13778471 -0.10955642186419043 0.8728557119038869
13779462 -0.10765823244858605 0.8728483743065298
13780453 -0.1060530612994806 0.8731752278909263
13781444 -0.10361255662554926 0.8735353619057792
13782435 -0.1009138262296647 0.8733772713179172
13783426 -0.09903432594471878 0.8735802497512676
13784417 -0.09682328260696817 0.8738025838677999
13785408 -0.0949390768752605 0.8736866284186481
13786399 -0.09202687330394038 0.8737792085109516
13787390 -0.0901333918014167 0.8744550159220353
13788381 -0.08833192246426366 0.8741941041377477
13789372 -0.08411338552331163 0.8738900703530325
13790363 -0.08350132550414702 0.8744370440410968
13791354 -0.08144708214907842 0.8746305895129747
13792345 -0.07928749133500103 0.8745296002612283
13793336 -0.07661574599692975 0.8742217917850182
13794327 -0.07464329953463136 0.8749631386668155
13795318 -0.0724107682780908 0.8750432565934626
13796309 -0.07006388264184275 0.8749793586957715
13797300 -0.06770416879382686 0.8749552365128609
13798291 -0.06541023881684967 0.8752401839167921
13799282 -0.06345813361769677 0.8746911426750319
13800273 -0.060583768003860096 0.8754813791337399
13801264 -0.05858874553365303 0.8756611711612557
13802255 -0.05642171105541379 0.875514492151915
13803246 -0.053939199846647114 0.8751362781723694
13804237 -0.05182723183922033 0.8748067259228857
13805228 -0.049147002190592225 0.8748053574983953
13806219 -0.04718915975366183 0.8746970938371393
13807210 -0.044369091510401436 0.8751592135783043
13808201 -0.04234209860177724 0.8751295373351589
13809192 -0.03986185192608262 0.8749635348211173
13810183 -0.037372926499211354 0.8749792290956127
13811174 -0.03509965929940197 0.8743096255733503
13812165 -0.03297497214346737 0.8745544022581538
13813156 -0.030830012324814873 0.8746504211826496
13814147 -0.0281542800872848 0.8746379797038393
13815138 -0.025751436839294567 0.874457031028963
13816129 -0.023192018364470563 0.8746865971270424
13817120 -0.020841329484390762 0.8738643927697461
13818111 -0.018206010389181442 0.8738047030953635
13819102 -0.015642726478115213 0.8738855994980005
13820093 -0.013433668303183974 0.8736391671682541
13821084 -0.011034738122915813 0.8740909777982031
13822075 -0.008395178599816965 0.8737217130515942
13823066 -0.00581735052153825 0.8733131317390547
13824057 -0.0035502367429743726 0.8731566143779638
13825048 -0.0013325262048012713 0.8727347512226723
13826039 0.0014814574461403547 0.8723322450796076
13827030 0.003904807771943053 0.8729125254722845
13828021 0.006261130355911696 0.872274566035574
13829012 0.009159420645589644 0.8722433490230489
13830003 0.011625519831493465 0.8716491021962568
13830994 0.014110509595389974 0.8713952602542857
13831985 0.01654894900280211 0.8711234810361309
13832976 0.018745374631521546 0.8708828406430611
13833967 0.021754265585319364 0.8705716991687564
13834958 0.02444191551464113 0.8703826243548081
13835949 0.026686139451839605 0.869889021437748
13836940 0.029704436940388185 0.869527277550805
13837931 0.032204074556288445 0.8689519577017352
13838922 0.03459398099861338 0.8688738762055619
13839913 0.0374317249380882 0.8685391902014367
13840904 0.040097935223747556 0.8683783264535997
13841895 0.04284808878988425 0.8679607119449978
13842886 0.04565163997842536 0.8676230026497663
13843877 0.04851125832963262 0.8667907188010248
13844868 0.050673266991614424 0.8663469905672857
13845859 0.05332952607837389 0.8662354421953253
13846850 0.05615782832158494 0.8654917878629205
13847841 0.05906379408190768 0.8651463560292159
13848832 0.061855594760942 0.8648004219404456
13849823 0.06418317769558508 0.8644995111307121
13850814 0.06701759616234544 0.8635766716990068
13851805 0.06946973180615681 0.8631299717109507
13852796 0.07245780149021101 0.8625217572885883
13853787 0.0746462225961342 0.8621693284508347
13854778 0.07806336365817598 0.8612221533269742
13855769 0.08103941696435206 0.8607529434122224
13856760 0.08335701314121476 0.8604455610040324
13857751 0.0860987354879176 0.859757125225148
13858742 0.08901650446487136 0.8590422018179155
13859733 0.09184202211880571 0.8582763123837819
13860724 0.0948726994859007 0.8573607908530517
13861715 0.09790746942375124 0.8569645267565151
13862706 0.10056369879424093 0.8561403591758094
13863697 0.1031738306262259 0.8556846121816633
13864688 0.10610336504201723 0.8548383900676205
13865679 0.10898335435752486 0.8539892764818443
13866670 0.11248577830927971 0.8531989845659143
13867661 0.11510838618460072 0.8522645630962661
13868652 0.11789855324489075 0.8515386572734763
13869643 0.12128417152360835 0.8512389280369391
13870634 0.12354223002944534 0.850027998768329
13871625 0.12660377882111332 0.8489339005896809
13872616 0.1296448542560348 0.8483209991656973
13873607 0.13256350426372043 0.8470703378366743
13874598 0.13566929236980307 0.8463600394806289
13875589 0.13891031279120622 0.8451396284812431
13876580 0.14131497656031183 0.8445520305572445
13877571 0.14479055125311419 0.8436610630453039
13878562 0.14725582994400988 0.8425744184195354
13879553 0.15055458017789042 0.8412205536969406
13880544 0.15400908853172307 0.8402201217465313
13881535 0.15686077847401603 0.8388156059123265
13882526 0.1598231846534701 0.8378830690233519
13883517 0.16304197022243622 0.8370954593186356
13884508 0.1656091142683345 0.836063279550563
13885499 0.16867419561272862 0.8348746498351274
13886490 0.17260206881908072 0.8334204922628609
13887481 0.17499787080453233 0.8321911049889336
13888472 0.17847136341057074 0.8311853788310367
13889463 0.18122381239072216 0.8296553435210969
13890454 0.18457224894424593 0.8284970287510225
13891445 0.18762760714476093 0.827394361521335
13892436 0.19047040520947162 0.8255588401620586
13893427 0.194205003919544 0.8244735146818497
13894418 0.19738786111133647 0.8231236746986701
13895409 0.20013096135823566 0.821048977367863
13896400 0.2036801140200184 0.8201544651393179
13897391 0.20697404605511177 0.8187024173151621
13898382 0.21023287206575236 0.8170642149025007
13899373 0.21352998782664478 0.8158432016689128
13900364 0.2165768372738496 0.8135938305972498
13901355 0.21995922608411309 0.812924825766621
13902346 0.22265572705232756 0.8106439012936735
13903337 0.22603521205634405 0.809303674130914
13904328 0.22941036658277614 0.8074189833053789
13905319 0.23286160574847276 0.8052646522689237
13906310 0.2363997737251323 0.8038067584785388
13907301 0.2394143344748966 0.8019591013284386
13908292 0.24291887686431 0.7995362835772859
