# HZ S RI R 50
13500000 -0.5442648712824685 0.6967891988909476
13515000 -0.527611254813842 0.7099530674833544
13530000 -0.5089372278430341 0.723195648514498
13545000 -0.4905652474932037 0.7356108972631451
13560000 -0.4718249691939879 0.7487190444821379
13575000 -0.4514777694189812 0.7606350654966342
13590000 -0.4308053584941657 0.7727661010470519
13605000 -0.410316220346577 0.7840459533052376
13620000 -0.3887376463042324 0.7945537767461667
13635000 -0.36675965510806957 0.8053718168123475
13650000 -0.3435608697123419 0.8151085353306902
13665000 -0.3195154638756548 0.8252136945063026
13680000 -0.2947715387925637 0.8341478281581854
13695000 -0.2694216048335251 0.8425140567294563
13710000 -0.24399811916222466 0.8499181502011736
13725000 -0.2154607482641881 0.8566861828497563
13740000 -0.18741556247573984 0.8624590553917683
13755000 -0.15770316675171786 0.8674698051756745
13770000 -0.12659730639587433 0.8718309039508382
13785000 -0.09413198660584977 0.8741800173002733
13800000 -0.06045556080756321 0.8758053759398651
13815000 -0.02453476530949443 0.8747946052822246
13830000 0.013008266090503108 0.8720421831104458
13845000 0.052639875966271045 0.8667896614648993
13860000 0.094080945667515 0.8584403942115959
13875000 0.13809454440034244 0.8462021306369998
13890000 0.18481492008094244 0.8291198724373318
13905000 0.2331949405772733 0.8060446106514079
13920000 0.28436605305566914 0.7752623697418604
13935000 0.33713479433531746 0.7356743454333831
13950000 0.3888871683638965 0.6838155865847096
13965000 0.43950764266835923 0.6170635638497663
13980000 0.4821525776581464 0.5321481626951875
13995000 0.509982125583839 0.42610373378979016
14010000 0.5149476216550385 0.29951314880948104
14025000 0.4788797700501693 0.15905037588587098
14040000 0.39417445318616134 0.01823128685504344
14055000 0.254036034975929 -0.09397781811764065
14070000 0.07685974595107233 -0.14815126025236228
14085000 -0.10847861866906075 -0.13634682335558207
14100000 -0.26587468608177073 -0.0627986985391857
14115000 -0.37873268232338503 0.047337897873523674
14130000 -0.44602098877065444 0.16937627609302314
14145000 -0.4728063709514318 0.28577119393641626
14160000 -0.47270549645032567 0.3897549512506413
14175000 -0.4558997027715155 0.4793875473632994
14190000 -0.42749829191537564 0.5529180231771533
14205000 -0.39328602571126325 0.615717182675597
14220000 -0.356115091079486 0.6663631230661607
14235000 -0.31720394967610877 0.7078366268598513
14250000 -0.2779099846117695 0.7427852191611685
14265000 -0.2395947979897459 0.7706535516272737
14280000 -0.20164288286141602 0.7943937767696542
14295000 -0.16463868343676524 0.8137658760027721
14310000 -0.12890639663352532 0.8294365312245034
14325000 -0.09414785273779791 0.8420164560178616
14340000 -0.060290611914260835 0.8527366678023405
14355000 -0.027556309710086362 0.8603909978833583
14370000 0.004387696083359119 0.8662863874608911
14385000 0.03521394945350651 0.8715836149574849
14400000 0.06535542211067162 0.8741184567719271
14415000 0.09479618213458012 0.8758977321120104
14430000 0.12364547679838397 0.8767017934776015
14445000 0.15169687891861963 0.8756994980445202
14460000 0.17882162563060508 0.8743575825234476
14475000 0.20602730918538278 0.8721331021543021
14490000 0.23192291007823793 0.8686930724124765
14505000 0.25767222071830276 0.8643452058283844
14520000 0.28259096097085 0.8591260010051314
14535000 0.3072799111947238 0.8537202467601199
14550000 0.3311221214895837 0.8474047417347721
14565000 0.3549189584868412 0.8404617465350023
14580000 0.3781620306078357 0.8326667460167416
14595000 0.4007505810014059 0.8243365781138899
14610000 0.42283171427899413 0.8160434570730426
14625000 0.44462593789510746 0.806549441850527
14640000 0.4664314119345817 0.7967540252970422
14655000 0.48691491842447343 0.7867188398696088
14670000 0.5070902335372125 0.7753936925538524
14685000 0.527227575857035 0.7638115695520515
14700000 0.5470862434957308 0.7524722676859996
14715000 0.5665701493991799 0.7392794889116148
14730000 0.5854967631468073 0.727045348164711
14745000 0.6036162996117782 0.7143075570777483
14760000 0.6215834383926968 0.7007826467643973
14775000 0.639233703458368 0.6864463290014162
14790000 0.6563032682282404 0.6724118143517303
14805000 0.6735483191504411 0.6576863085306848
14820000 0.6897531644113846 0.6425043599099438
14835000 0.705344490640165 0.6272591258228557
14850000 0.7210764435284751 0.611002994504549
14865000 0.7361391165277749 0.594644075307437
14880000 0.7505513652076741 0.5781221097286059
14895000 0.7651064133468889 0.5617311459976313
14910000 0.7784873590912813 0.5443471771573913
14925000 0.7919820369076929 0.5269631992926992
14940000 0.8049962710361475 0.5092453779050176
14955000 0.8171630007503184 0.49111602153447675
14970000 0.828664783115522 0.4729257764686527
14985000 0.8404225841234741 0.4541170646067777
15000000 0.8515560277645398 0.4359164107403637
