# HZ S RI R 50
14000000 0.9126010658388177 0.4394337825664282
14001325 0.9130234212643356 0.4355365582533457
14002650 0.9135030805493035 0.43125833821596293
14003975 0.9142681132426839 0.4269550683367122
14005300 0.9146340036070125 0.42218178318637434
14006625 0.9161816326827644 0.41836131581104324
14007950 0.9161815502485344 0.41363969131109435
14009275 0.9165422060203804 0.4090982732909666
14010600 0.9178198547226334 0.40514348016987656
14011925 0.9182636871827919 0.39988363203238064
14013250 0.9189990717537501 0.3953357078071819
14014575 0.9199567576938203 0.39105009584527417
14015900 0.9202622498317653 0.38582742435681733
14017225 0.9204455855091425 0.38142064561287004
14018550 0.9211351769429645 0.3764553189990971
14019875 0.9207630792897639 0.37134968210278746
14021200 0.9224105283974039 0.36647025830366664
14022525 0.9223310676426301 0.36057685353526436
14023850 0.9228068515775346 0.35601947727019617
14025175 0.9233699571236803 0.3508681212827568
14026500 0.9229657378241367 0.34534893593545607
14027825 0.9235320867475992 0.34003964888702476
14029150 0.9236367763325778 0.33457235765252497
14030475 0.9239161486504771 0.3284394055382382
14031800 0.9245151328597013 0.32329136557225663
14033125 0.9237866612116931 0.3173652475050466
14034450 0.9241842503455042 0.3118310833273755
14035775 0.9245660814943745 0.3057904968200852
14037100 0.9238000413038407 0.29949526310050095
14038425 0.9238300897538071 0.29406071119879873
14039750 0.9243052427433945 0.2877889300257473
14041075 0.9230682795781605 0.2810151537096016
14042400 0.9232974150961093 0.2756293668264743
14043725 0.922931062928218 0.2690401460663001
14045050 0.9227409241222305 0.26200261306051315
14046375 0.922555393004859 0.2556258804339283
14047700 0.9209196859913612 0.2493025130059059
14049025 0.9206129666678353 0.24282789110807954
14050350 0.9200101110220654 0.2357385035966407
14051675 0.9184244941878627 0.2286128505678734
14053000 0.9185180458020866 0.2220986325179522
14054325 0.9175148305026442 0.21531916966385026
14055650 0.915213213900082 0.20717336821181842
14056975 0.9152553166655503 0.20041116012269086
14058300 0.9136082475941408 0.19286749587220606
14059625 0.9122958603484316 0.18540485889038438
14060950 0.9109616761117284 0.1779623488725303
14062275 0.9088723882228747 0.16988209087799333
14063600 0.9069659683329783 0.1623312857524362
14064925 0.905575900391461 0.15418328193245848
14066250 0.9030420947860103 0.14630751759053784
14067575 0.9018242935109405 0.13840634640544222
14068900 0.8989430257265064 0.13025495643791313
14070225 0.8956506106937941 0.12176208465626046
14071550 0.8941433284872947 0.11324031708377996
14072875 0.8908392803285968 0.10442185826635911
14074200 0.8881427265952999 0.09601699365827261
14075525 0.885587355892829 0.08809961813823951
14076850 0.88173244213352 0.07870764995676548
14078175 0.8786478798293098 0.06947815835892422
14079500 0.8746863728240691 0.06102375063494876
14080825 0.8705390886909661 0.051955699203118995
14082150 0.8676335719097421 0.042661021410620364
14083475 0.8625212878772366 0.03304575514989608
14084800 0.8581140047458501 0.024242893387385653
14086125 0.8543921499976427 0.01476406327197964
14087450 0.84859987746774 0.00520774527367749
14088775 0.8453412205951008 0.007108096777276593
14090100 0.8390605368057804 -0.01384760249970402
14091425 0.832499423035043 -0.02327735631721395
14092750 0.8274917920655941 -0.03312050912480863
14094075 0.8229316698547265 -0.03167575688588708
14095400 0.8143377522517408 -0.05291744297067427
14096725 0.8086055704607151 -0.06240080505322907
14098050 0.8008340240959465 -0.0727670419235449
14099375 0.7939390754800965 -0.08228964002209219
14100700 0.7871961183119932 -0.09263239834648479
14102025 0.7780776575024521 -0.10256241163074764
14103350 0.7698747811480029 -0.11256610077243388
14104675 0.7623666986150803 -0.12278174468253109
14106000 0.7522073924571325 -0.13213866350763856
14107325 0.7440476600024468 -0.14283526229425045
14108650 0.7337885913915301 -0.1526810667899791
14109975 0.7233184746430598 -0.16293848991013937
14111300 0.7137077822314125 -0.17268586082311216
14112625 0.701617738214926 -0.18218310321884695
14113950 0.6914762143948684 -0.19172283170750246
14115275 0.679863815752664 -0.20217955219904118
14116600 0.6673082244680419 -0.2110274631819621
14117925 0.65546332220739 -0.22059552517217373
14119250 0.6427065317670774 -0.22984792173182228
14120575 0.6288999503594446 -0.2384104214753503
14121900 0.6156149032140851 -0.2477676641385082
14123225 0.6012121094506402 -0.2565553547369128
14124550 0.5866833408046355 -0.2652276364357012
14125875 0.5725803685502673 -0.2738984617146032
14127200 0.5564021041402967 -0.28099597345295735
14128525 0.5413737117459947 -0.2888355640612091
14129850 0.5253901210202089 -0.2963030956997435
14131175 0.50827911583457 -0.3024764328249785
14132500 0.49244410605923616 -0.30989156523833783
14133825 0.47450122592054345 -0.3149929682607109
14135150 0.4562856595547873 -0.321733759164237
14136475 0.4382248066081877 -0.32652655518847756
14137800 0.42116253727172065 -0.3326402229610788
14139125 0.40223358801553555 -0.33694126087865917
14140450 0.3832700082494641 -0.3406040661513821
14141775 0.3659197206576952 -0.3423476894821936
14143100 0.34387308027375435 -0.34705405789782007
14144425 0.3244029190843249 -0.34993840837042267
14145750 0.303977152742287 -0.3514214030984391
14147075 0.283805989544546 -0.35211322153839003
14148400 0.26369193238556826 -0.3536043851903822
14149725 0.24226363574283227 -0.35317976810873614
14151050 0.22104371921279364 -0.3525609011377711
14152375 0.199924350252988 -0.35192061237307665
14153700 0.1776125223057955 -0.3491577262198399
14155025 0.15708659738180197 -0.34683659038003695
14156350 0.13490439473864796 -0.34383808276670996
14157675 0.11371814287468972 -0.33930798455212335
14159000 0.0930189231401115 -0.3349889393231876
14160325 0.07164540780308017 -0.32889365834482076
14161650 0.05058796748903098 -0.3228804411862469
14162975 0.029299075364807216 -0.31632128057895925
14164300 0.007849766826677687 -0.30804616795103207
14165625 -0.012353239121736578 -0.2998948702283063
14166950 -0.03252472320475506 -0.29121840980300123
14168275 -0.05244967489469709 -0.28076327763585024
14169600 -0.07168742614273722 -0.27058479614093894
14170925 -0.09166762775466236 -0.259566079288732
14172250 -0.110692363066409 -0.24817035409097873
14173575 -0.12869357621312774 -0.236190193509225
14174900 -0.1468238382198484 -0.22281853652092748
14176225 -0.16387748521887185 -0.20974439182461507
14177550 -0.18135567681681528 -0.19592958354416254
14178875 -0.19781757095359337 -0.1809682839450078
14180200 -0.21372034063621168 -0.1664939282331435
14181525 -0.2290975728292453 -0.15130420729393196
14182850 -0.24352056684524342 -0.13522254347095936
14184175 -0.25735257284264107 -0.11981414387414682
14185500 -0.27141032564618306 -0.10268538820330021
14186825 -0.2841598212300774 -0.08553188797222282
14188150 -0.2968449115991927 -0.06915440732350785
14189475 -0.3088164963410737 -0.05075080442251119
14190800 -0.31952785956016383 -0.03353407752363972
14192125 -0.33062272369301626 -0.015446492663321503
14193450 -0.34006370847307044 0.0031078190024688363
14194775 -0.34947010980542176 0.020925806705362933
14196100 -0.35779354459892365 0.039547272296940925
14197425 -0.3658023239513158 0.057379143631607295
14198750 -0.37311372051057945 0.07597056475460916
14200075 -0.3802993809777316 0.09537347544932955
14201400 -0.38621507957661494 0.11362560819205517
14202725 -0.3920301298576394 0.1320502331316556
14204050 -0.3969305585608256 0.15157941803402075
14205375 -0.40115346564758275 0.16937699141138715
14206700 -0.40505243992430595 0.18821812351243972
14208025 -0.40857415637321315 0.20588046408193397
14209350 -0.41110594453155747 0.22381240573808356
14210675 -0.41298783045185683 0.24175933076961717
14212000 -0.41501176936401873 0.2591639400119849
14213325 -0.4162088502345494 0.2770142765697953
14214650 -0.41699005088916863 0.29467516617249656
14215975 -0.4174866651102263 0.31145025347435756
14217300 -0.4175507901738963 0.3288657861135055
14218625 -0.41706443957920175 0.3450574277995534
14219950 -0.4161787638141578 0.36085856998692856
14221275 -0.4149260568539175 0.3774728320999326
14222600 -0.413352328204105 0.39286970830437995
14223925 -0.41148138684773095 0.4080497578659287
14225250 -0.40929978396566197 0.42380050260989754
14226575 -0.4069561681783177 0.4378550975514866
14227900 -0.40423527928049224 0.45310594238975
14229225 -0.4012464264357857 0.46737678887149425
14230550 -0.39807494154053996 0.48101461631233783
14231875 -0.3939470342522468 0.49505355260367734
14233200 -0.3906393272664895 0.5081384206483704
14234525 -0.38668504977733464 0.52088857448639
14235850 -0.3821604112650016 0.5342908914146577
14237175 -0.37782836184953733 0.5461075305126952
14238500 -0.37334448113079416 0.5583971262287998
14239825 -0.3686996399046572 0.5705162103593325
14241150 -0.363943247096245 0.5817885758953817
14242475 -0.35878551115859975 0.5937970891845564
14243800 -0.35386385660513303 0.6047455146696974
14245125 -0.34842653710670346 0.6153416504109978
14246450 -0.3429662543432732 0.6258524695704282
14247775 -0.3377296360234388 0.6359265537513518
14249100 -0.33220361581201746 0.6456294745044181
14250425 -0.3265287894227115 0.6562575383383581
14251750 -0.32071262226840624 0.6656247185585591
14253075 -0.3148825243123733 0.6748105616935274
14254400 -0.3090792940914653 0.6839819081270297
14255725 -0.30344432330485094 0.6925707534641815
14257050 -0.29732727326514957 0.7014857372581172
14258375 -0.29164598458587226 0.7095318870731583
14259700 -0.2851179660674761 0.7179064661703229
14261025 -0.2790963588459476 0.7255073239222226
14262350 -0.27320697348483514 0.7334049005593214
14263675 -0.2667269172803015 0.7404700158679944
14265000 -0.26069449082667545 0.7483178078405234
14266325 -0.2550041240090953 0.7549615365615172
14267650 -0.2495207973902897 0.7612305832785687
14268975 -0.24415441814045308 0.7679992618900267
14270300 -0.2369432253401445 0.7750908413233468
14271625 -0.230898589431158 0.780985470882699
14272950 -0.22541322177597986 0.7867469345996002
14274275 -0.21915832331419563 0.7925057676789008
14275600 -0.21328612278049727 0.7984495171021566
14276925 -0.2076297996966432 0.8038880826189306
14278250 -0.20138990366454196 0.809847622162527
14279575 -0.1957570766824533 0.8151167353210538
14280900 -0.19007909468368678 0.8199655898325535
14282225 -0.18386931523870298 0.824952492761458
14283550 -0.1784985895228431 0.829492286342489
14284875 -0.172660021341647 0.8341491114518544
14286200 -0.1669822951750327 0.8394575169511754
14287525 -0.16162586251240377 0.8432499590295931
14288850 -0.15550732479413756 0.8476480888234647
14290175 -0.15000207732984247 0.8520180560132636
14291500 -0.1446398865143745 0.8561292331281594
14292825 -0.13893327785271406 0.8600158356615049
14294150 -0.13362230424573052 0.8635064945890445
14295475 -0.12758269217330362 0.8674335319503834
14296800 -0.12238324228461214 0.8708814986829186
14298125 -0.11725097372618909 0.8745854612030622
14299450 -0.11165129452717772 0.8779657055503064
14300775 -0.10635209872923825 0.8815574958655744
14302100 -0.10132467045084613 0.8845431408076176
14303425 -0.09594419580568495 0.8878011127968903
14304750 -0.09098075146616406 0.8908478879730828
14306075 -0.08578881950981604 0.8936215381743579
14307400 -0.0803518682807712 0.8965230631297239
14308725 -0.07580591829586208 0.8993409667768746
14310050 -0.07087363979330158 0.9020418480301037
14311375 -0.0655928521824001 0.904836124503783
14312700 -0.06104433125013427 0.907179752516767
14314025 -0.055796975437266076 0.909906969008173
14315350 -0.05129347077039662 0.9119929966532548
14316675 -0.046449682326981545 0.9145907414652413
14318000 -0.04204414276605698 0.9167958868783016
14319325 -0.03766548763888947 0.9190672011812268
14320650 -0.03291848857752654 0.9209471733551755
14321975 -0.028373063945217963 0.9232375093100933
14323300 -0.023971399838957193 0.9251643421814382
14324625 -0.01937167194294143 0.9270934607404724
14325950 -0.01482385552013575 0.9293554097149926
14327275 -0.010810806855461576 0.9308964399083115
14328600 -0.006434136426286184 0.9323399123125774
14329925 -0.002433008600625935 0.9344271120814676
14331250 0.0018952860807043683 0.9359826928078141
14332575 0.006403562496432639 0.937528593096951
14333900 0.009974055287130645 0.9389129345448466
14335225 0.013961060211992976 0.9407801075046266
14336550 0.01858862713762569 0.9422395675815481
14337875 0.022599245535125843 0.9436310009299356
14339200 0.026725969247436657 0.9449172835558592
14340525 0.030184307673569624 0.9458799323641237
14341850 0.033921068258035036 0.9476202495468607
14343175 0.03816692397907425 0.9488405541511808
14344500 0.04216175217493631 0.9503699366516886
14345825 0.04569307034176275 0.9510864714592668
14347150 0.049879118706368894 0.9521591166766238
14348475 0.05349519368807678 0.9532093467002377
14349800 0.0569885448932232 0.9547946790951618
14351125 0.060608619291295296 0.9553443383456699
14352450 0.0643455084976779 0.9562890024826174
14353775 0.06783222446919193 0.9574136143501716
14355100 0.07146475658229691 0.9586958147525257
14356425 0.07455351988109149 0.9590896662613148
14357750 0.07830661401013914 0.960524222070373
14359075 0.08161293505958254 0.961125510710051
14360400 0.08520310352731318 0.9619921507720728
14361725 0.08830100869372483 0.9627907548668498
14363050 0.09187882855373117 0.9633916325335964
14364375 0.09493415936270197 0.9643477559449637
14365700 0.09852631047654219 0.9650853817975802
14367025 0.10098120573879558 0.965962397873328
14368350 0.10455025197554041 0.9665151686549793
14369675 0.10751568263462986 0.967419373081378
14371000 0.11076844240081495 0.9673169642436753
14372325 0.11385577722160314 0.9687079264687322
14373650 0.11683544105418439 0.9692685211523745
14374975 0.12001029492668422 0.9699566943133864
14376300 0.12263028742098746 0.9702198859533732
14377625 0.12571720654511004 0.9710534708963527
14378950 0.12880214515056612 0.9713335549985984
14380275 0.13192023489963833 0.9716669169730069
14381600 0.13447604173173652 0.9723786352205008
14382925 0.13763074795021443 0.9729647931478966
14384250 0.14043683872759924 0.9736101729986537
14385575 0.14323172849180135 0.9737299369618769
14386900 0.14579991165188252 0.97442770859889
14388225 0.14865900848184038 0.9746122600937249
14389550 0.15119662385321814 0.9747201072218162
14390875 0.15416853624232824 0.9753503934779593
14392200 0.15657292707364687 0.9758963491270887
14393525 0.15957420289357643 0.9761709597185573
14394850 0.16189051191040524 0.9768661152148135
14396175 0.16304017675238555 0.9772565032464569
14397500 0.16702938587767366 0.9770017171121648
14398825 0.16957687928140697 0.9773588223707855
14400150 0.1721574082599216 0.9775642614581698
