# HZ S RI R 50
24700000 0.8762765209159876 -0.26072328110822535
24700993 0.8745454303529766 -0.2618260333134312
24701986 0.8725985603561048 -0.2627680927518196
24702979 0.8716887347152711 -0.26334524758977135
24703972 0.8707328739338334 -0.2643994635737988
24704965 0.8688934148003054 -0.2659651454506562
24705958 0.8673280671844844 -0.2668708350123177
24706951 0.8662105797609979 -0.2684905733644165
24707944 0.8644493488413172 -0.26963502900970976
24708937 0.8634140876742924 -0.2711256444736012
24709930 0.8617987207125701 -0.2727437184944703
24710923 0.8601224402451264 -0.2731709767351925
24711916 0.8588413064752122 -0.2750235913097887
24712909 0.8571793245565125 -0.27594245016741287
24713902 0.8557796619881858 -0.2771546562567855
24714895 0.8536678199225674 -0.27948832624636033
24715888 0.8524077763656491 -0.2797529492183006
24716881 0.8514462796200187 -0.28095110194211254
24717874 0.8499233365754065 -0.2828331173910638
24718867 0.84790396477071 -0.2834606347757021
24719860 0.8461994867593255 -0.2850488493063976
24720853 0.8449679639257831 -0.2863410106531424
24721846 0.8432987325872731 -0.28739983295931426
24722839 0.8413241964882101 -0.28965470332253923
24723832 0.8397888794565393 -0.29056757887374507
24724825 0.8381197466626188 -0.2914252364952227
24725818 0.8364547596187185 -0.29302143064329367
24726811 0.8347285296785689 -0.29383337773589335
24727804 0.8331501778846034 -0.29483135299561714
24728797 0.8312515144749467 -0.29642457964800173
24729790 0.8292253929210428 -0.2980673278314867
24730783 0.8274937992166386 -0.2991958374609065
24731776 0.8257866505425956 -0.3004586619663825
24732769 0.824324610692496 -0.30120670917929493
24733762 0.8223030596638796 -0.3030063384756206
24734755 0.8203363518229939 -0.30404902282445795
24735748 0.8183555897877622 -0.3054557638005124
24736741 0.816755412214947 -0.3068593169923165
24737734 0.8149630380305325 -0.3076857942586005
24738727 0.8132120792247577 -0.30916103643339976
24739720 0.8112083931326515 -0.31064147674521697
24740713 0.8090589552164444 -0.31189873351850095
24741706 0.8076034688720962 -0.31262701750440425
24742699 0.8048155673210202 -0.31432767635880043
24743692 0.8029574229260663 -0.315733313746591
24744685 0.801626332368585 -0.31695516825695913
24745678 0.7988218365608032 -0.3182246504301379
24746671 0.7969211745348291 -0.3193486019836213
24747664 0.794782807507125 -0.3207602018460737
24748657 0.7929567012680127 -0.32152583850494687
24749650 0.7910722033080052 -0.32286978635193714
24750643 0.7887492844034062 -0.32451757170911766
24751636 0.7862618605563473 -0.3259581130162325
24752629 0.784140052909075 -0.32726699354953187
24753622 0.7823488255643509 -0.3282290332563354
24754615 0.7805666864949162 -0.3290605378682481
24755608 0.7781705605450201 -0.33054609442770166
24756601 0.7751488857827439 -0.33159175411397257
24757594 0.7735180485256087 -0.33252264297407336
24758587 0.770899394874887 -0.33434239894677675
24759580 0.7686690904578947 -0.3354429804075223
24760573 0.7663531067749899 -0.33676106039723075
24761566 0.7640333694068153 -0.33765749438135545
24762559 0.7622203326607883 -0.3383445234720502
24763552 0.7589265998756218 -0.3402094836099523
24764545 0.756461556317906 -0.341821370983158
24765538 0.7545691503751251 -0.34253056955723316
24766531 0.7523793506525591 -0.34382663795743956
24767524 0.7499085413161489 -0.3445781833251978
24768517 0.7473768900646481 -0.3459574329877304
24769510 0.7444753398639415 -0.34753782817924267
24770503 0.742125164010206 -0.3476532494885043
24771496 0.7395215353197836 -0.3496642517260518
24772489 0.7368765214006185 -0.3506231447671877
24773482 0.7342967018588976 -0.35150178240282526
24774475 0.7314532941156537 -0.35305202126007984
24775468 0.7290283514548518 -0.35398619724091374
24776461 0.7265677386442068 -0.3547153881775358
24777454 0.7232615124438329 -0.3559189727140066
24778447 0.7211486984850387 -0.35707431575165094
24779440 0.7184420052055939 -0.35823812795851845
24780433 0.7146373142421569 -0.3599431049391465
24781426 0.712498528048902 -0.3605983709793244
24782419 0.7099344565161412 -0.36181676560299786
24783412 0.7069318008035173 -0.36237886445338463
24784405 0.7041787255920272 -0.36288197162275687
24785398 0.7008649598793322 -0.3651661991873062
24786391 0.6986793967551524 -0.36510539343180043
24787384 0.6960488617218971 -0.36607609808113845
24788377 0.6924677105967353 -0.3678865093986758
24789370 0.6895411366842423 -0.36809643170401257
24790363 0.6870031952588401 -0.3689300864084292
24791356 0.683705724462332 -0.3698062311960884
24792349 0.6808726709038123 -0.37112776742234693
24793342 0.677016631782183 -0.372806684369162
24794335 0.6740035583814183 -0.3730134290256985
24795328 0.6713161446040771 -0.3734273769044262
24796321 0.6681455949436063 -0.3749764123784515
24797314 0.664736987335456 -0.3754646136936937
24798307 0.661520487780741 -0.3764384056194115
24799300 0.6585805998031444 -0.37710373617661647
24800293 0.6551296699505295 -0.3789404093673895
24801286 0.6519206008627421 -0.3790882693566481
24802279 0.6482600751583859 -0.380185642964477
24803272 0.6448747060848948 -0.3801934209520652
24804265 0.6415761989930984 -0.3817813333402479
24805258 0.6385933077022844 -0.38157703332219317
24806251 0.6350506378273347 -0.3828958580397355
24807244 0.6312887301661406 -0.38319565536500816
24808237 0.6283596889532026 -0.38321795807177517
24809230 0.6239896794417772 -0.38554654626474677
24810223 0.6204173407558339 -0.3855431465284573
24811216 0.6180628656535703 -0.3857045994776702
24812209 0.6141196548622013 -0.38651882103289137
24813202 0.6100572398232311 -0.3865543537354256
24814195 0.6061951299768309 -0.38760257137158793
24815188 0.6023850306609984 -0.3883488850262495
24816181 0.5991021637389815 -0.3879874787408253
24817174 0.5954410433475056 -0.38907306264699504
24818167 0.5915348511347444 -0.3895386762447212
24819160 0.5880692463291829 -0.389210515387318
24820153 0.5840129714329683 -0.39012371053930667
24821146 0.5795697376522112 -0.3907021608401237
24822139 0.5764648237901956 -0.39072846179159526
24823132 0.5725771820508784 -0.3914708833090077
24824125 0.5688775613590878 -0.3908161555077966
24825118 0.5644433437603136 -0.3921284306177728
24826111 0.5605257421832996 -0.39149815589934456
24827104 0.5571590129905276 -0.3912294382134023
24828097 0.5525798482809998 -0.3921704082065644
24829090 0.547946212728773 -0.3920852795349448
24830083 0.5450105400548763 -0.3918586418032075
24831076 0.5365475418995242 -0.39706474663918434
24832069 0.5363915991554652 -0.3925061994465055
24833062 0.5325409574591823 -0.39226515779548604
24834055 0.527774962077848 -0.3925443352116796
24835048 0.5243671544871875 -0.39139616377214914
24836041 0.519786192950912 -0.3919210497335594
24837034 0.5144950045665531 -0.3920430817334887
24838027 0.5111287380821905 -0.3915416628888185
24839020 0.5068906042932826 -0.3918748385718667
24840013 0.5024429602364394 -0.39113080437443287
24841006 0.4988041174821194 -0.3905154909685985
24841999 0.4930991466509121 -0.39097810181187365
24842992 0.48946567370656685 -0.38987993318672154
24843985 0.4851132567434501 -0.38973893305543095
24844978 0.48116986119616606 -0.3876860069827124
24845971 0.4766263329636345 -0.38828425514326886
24846964 0.471787882819003 -0.38829726340778814
24847957 0.4668989937988716 -0.38734782564694903
24848950 0.46295791396943403 -0.38640377359238237
24849943 0.4552739739561713 -0.3896980524030541
24850936 0.45313945639207853 -0.3849918789156571
24851929 0.4493513037621381 -0.3842973109184974
24852922 0.44410271292074427 -0.3837900299530454
24853915 0.4399321270943885 -0.38244054186149146
24854908 0.43547564317666787 -0.38216926125722944
24855901 0.4298436454441871 -0.38059713352057606
24856894 0.4258253362904789 -0.3791130506306388
24857887 0.42029777005163144 -0.3784928995551315
24858880 0.41600662173358277 -0.3772388603820072
24859873 0.41135319622494887 -0.3769951351926085
24860866 0.405870536370432 -0.3761033573111062
24861859 0.40224444299438106 -0.3735267359665513
24862852 0.39781352341854365 -0.3722424662269482
24863845 0.3918631548805975 -0.3708938001592474
24864838 0.38743296461021615 -0.36956565099540145
24865831 0.3832940957985368 -0.3685563851162602
24866824 0.3775610631884098 -0.36644955741271684
24867817 0.373969034519476 -0.3641756948513455
24868810 0.36678870562364013 -0.3649893837087088
24869803 0.3637981235100659 -0.3612094548577915
24870796 0.3592331132964319 -0.36010270969950203
24871789 0.3531787077136615 -0.3582134629458505
24872782 0.34923304259976407 -0.3555372706152149
24873775 0.34439704188827225 -0.35397651162498867
24874768 0.3386748884540755 -0.35184995972694383
24875761 0.33511538824041937 -0.3496443773019535
24876754 0.3294452711164273 -0.3476844638990025
24877747 0.32440630336224635 -0.34483973699090426
24878740 0.31990144901100853 -0.3429915189103175
24879733 0.3142508080695202 -0.34068313137472583
24880726 0.3099401064175233 -0.337847085143507
24881719 0.30560415824647164 -0.33654791667979445
24882712 0.30349961224993 -0.32944373782088
24883705 0.2956830128997992 -0.330079602343838
24884698 0.29027468109619015 -0.32789770009954033
24885691 0.28534700683145603 -0.3247567985283637
24886684 0.28130547457591415 -0.32208735241916836
24887677 0.2753212945946758 -0.3200390470076865
24888670 0.2709829826576909 -0.31614923931342176
24889663 0.2670807344415653 -0.3136371170623928
24890656 0.2610445785313484 -0.3101181385737946
24891649 0.2574121670455172 -0.30710870152408337
24892642 0.25258693731047394 -0.3043295124916384
24893635 0.24691055226383862 -0.3006730078685021
24894628 0.24320173526725947 -0.2971639666433801
24895621 0.23785651935953595 -0.2938588827350101
24896614 0.23275117573224735 -0.29006748668800914
24897607 0.22919066902880814 -0.28693321064630756
24898600 0.22341632917021986 -0.28330344213451325
24899593 0.2191188213581684 -0.27914011337465644
24900586 0.21459851815607087 -0.2768706633072982
24901579 0.209035065208738 -0.2733774788245508
24902572 0.20479677082285416 -0.269303302125119
24903565 0.20088054873358793 -0.2635521356943271
24904558 0.19736657005637173 -0.2600400405546939
24905551 0.19084182088297333 -0.255439337307882
24906544 0.18761408694893122 -0.25110898370138557
24907537 0.1838669619195064 -0.2474279321763235
24908530 0.1782855193775807 -0.24293314185863513
24909523 0.17550561993709513 -0.23853393050884789
24910516 0.17045497898789513 -0.2351071810032934
24911509 0.1656478885911117 -0.22928035060405316
24912502 0.16328730426846205 -0.22486698238722197
24913495 0.15735864899140872 -0.22051275417501498
24914488 0.15379280470733353 -0.2151965851974402
24915481 0.1501060586586073 -0.2116928123455526
24916474 0.1448793589570325 -0.20633229524129612
24917467 0.1427009361185935 -0.20144248616938107
24918460 0.13822608773096756 -0.19664366478795248
24919453 0.13385701465702207 -0.1908044034650701
24920446 0.1312162624029813 -0.18645546639823526
24921439 0.1265150883707482 -0.1815785497065543
24922432 0.12240154749972207 -0.1759355277813008
24923425 0.12019372087645508 -0.17090270261157126
24924418 0.11554331947592816 -0.16545528291064673
24925411 0.11260399326137432 -0.15951940494449413
24926404 0.10995879307359463 -0.15504162111728004
24927397 0.10500784103333916 -0.14896194892426887
24928390 0.10350717314093684 -0.14330779976981012
24929383 0.09953280857861899 -0.13843563003120607
24930376 0.09590589738141819 -0.1317103701337058
24931369 0.09390619302059139 -0.12702123078649255
24932362 0.08962370979781054 -0.12096882094861065
24933355 0.08741736467984644 -0.11459634963118771
24934348 0.0850915659313135 -0.10983924376415764
24935341 0.08104591670906047 -0.10289521465550396
24936334 0.07910975903180768 -0.09740670359867826
24937327 0.07623062492581448 -0.09216281887136868
24938320 0.07317840255119613 -0.08557558330414135
24939313 0.07205585169074313 -0.08023754486977491
24940306 0.06907630930792483 -0.07392454271725707
24941299 0.06588878842067612 -0.06745580471216348
24942292 0.06479467166764087 -0.061762389862787696
24943285 0.06127225470055123 -0.055379510013633365
24944278 0.05968918068129783 -0.048695374734890766
24945271 0.05849925316620238 -0.043743366157373086
24946264 0.05510658698892358 -0.03647303281738763
24947257 0.05490875810693066 -0.030706486542246624
24948250 0.05213712240632906 -0.025021424290500725
24949243 0.050254175167035474 -0.01711289263757594
24950236 0.049473278633370595 -0.012096065061119043
24951229 0.0467807428930132 -0.005368690627744556
24952222 0.045735367071671994 0.0015300050858511893
24953215 0.04460411258273459 0.006628805504891524
24954208 0.04258819362080922 0.014098398631165675
24955201 0.04234950309048494 0.020422018619801592
24956194 0.04122266827928997 0.026096358481088475
24957187 0.038935301607184204 0.033447593017590656
24958180 0.039120332773024645 0.0390396642238656
24959173 0.03745179796116203 0.04529813542519403
24960166 0.036459379830164014 0.05283144280089822
24961159 0.03685418446291879 0.05780541856103238
24962152 0.035018033950117974 0.06549420721779033
24963145 0.035110873354866096 0.07255863113189125
24964138 0.034453611254268234 0.0774351199912879
24965131 0.03333777258468156 0.08546449098362358
24966124 0.03424905851098219 0.0913227059971919
24967117 0.0334725630350787 0.09715605162512624
24968110 0.03318338910222752 0.10455143778415005
24969103 0.03373881835226026 0.10986106659676577
24970096 0.03309147495827883 0.11719433555899049
24971089 0.03346039074957196 0.12388612186418514
24972082 0.0342054066176394 0.12968382415823468
24973075 0.033709480756975094 0.13676924927381529
24974068 0.034434671495895054 0.14285395900651776
24975061 0.035055247723305795 0.14802705798732935
24976054 0.03488844232310102 0.15569656733088805
24977047 0.036561208828722644 0.16129596952414518
24978040 0.0366360003262691 0.16731553020533382
24979033 0.03746110402932441 0.17475954870853833
24980026 0.038114424508568855 0.18112985243119561
24981019 0.03872939824310001 0.18665160171743525
24982012 0.04057277891855747 0.19307097856092634
24983005 0.04146386603704237 0.19800265396297934
24983998 0.04225210791821021 0.20571667453437611
24984991 0.0440644555249611 0.21123806368816347
24985984 0.045073233041780326 0.21677789725038285
24986977 0.046067138780869016 0.2235092022186308
24987970 0.04805577066817474 0.2287186461120393
24988963 0.04894119418377209 0.23508005571214755
24989956 0.05077367483602576 0.24180459878286822
24990949 0.052745219116849776 0.24671259690689643
24991942 0.05369587371663485 0.25316935627315723
24992935 0.056330354080134086 0.25894107227590263
24993928 0.0573503092449889 0.2634649464832494
24994921 0.059233958949812655 0.2709379555086095
24995914 0.06148524076221428 0.2755307498482482
24996907 0.062362609644141594 0.2803329928878193
24997900 0.06547497847413551 0.28744053239204903
24998893 0.06721690860432009 0.29232409345769783
24999886 0.06950852109950817 0.29802783969163943
