# HZ S RI R 50
18000000 0.7747929574010496 -0.16895985227407126
18000993 0.7705983217105276 -0.1724400224579759
18001986 0.7677252000160951 -0.17450940304950832
18002979 0.7659306059580246 -0.17721787504889844
18003972 0.7576644554121604 -0.18189968343371143
18004965 0.7561522953820007 -0.18473822385809358
18005958 0.7526843127726148 -0.1878523171373258
18006951 0.744541076584672 -0.1923608635469458
18007944 0.7432844151170843 -0.19464785958881892
18008937 0.7372433088854516 -0.1991396649415399
18009930 0.7306707343403196 -0.20252020746488547
18010923 0.7299228409072859 -0.20502470429441957
18011916 0.7211980587868463 -0.20963619100564568
18012909 0.7174057430349859 -0.21191481566265438
18013902 0.7150883284895055 -0.21517834620808152
18014895 0.7053115723764412 -0.21935765307456265
18015888 0.7037299110825532 -0.22173458253774708
18016881 0.69834170330644 -0.22510413648545807
18017874 0.6900691988624509 -0.22867827137191832
18018867 0.6884205392010965 -0.2310021246265148
18019860 0.6805850793169634 -0.23545803606701426
18020853 0.6739578626332068 -0.2380937081136637
18021846 0.6721370859211374 -0.24074708385497576
18022839 0.6620515366026513 -0.24479354031799844
18023832 0.657797462178318 -0.24717243729465085
18024825 0.6542366798405143 -0.25013212197466866
18025818 0.6436903078361313 -0.2537418398564186
18026811 0.6412206626410487 -0.2558722371541996
18027804 0.6340993676038277 -0.2592447438581282
18028797 0.6248443657636198 -0.2617845826952633
18029790 0.6233381248745414 -0.2642511218090363
18030783 0.6132835566071501 -0.2672977037995563
18031776 0.6065166145406551 -0.2695156206403104
18032769 0.6040389484019805 -0.2727603536133822
18033762 0.5919712928697783 -0.274875912717338
18034755 0.5877763233697344 -0.27715733548703053
18035748 0.5819792049731003 -0.2800181320220494
18036741 0.5710833103294515 -0.2820620541407796
18037734 0.5685818203578156 -0.2844807660827186
18038727 0.5595069067206337 -0.2867016338579983
18039720 0.5494906738275925 -0.2878178394013659
18040713 0.5476272781638093 -0.2906503760111694
18041706 0.5356799295109074 -0.2923776507837582
18042699 0.5290615653132826 -0.29406171601934256
18043692 0.5249864379375822 -0.2968284020373385
18044685 0.5120040710702297 -0.29725539501989445
18045678 0.5076126945380838 -0.29938990609882277
18046671 0.5003487303105892 -0.30160388859073844
18047664 0.48837973842474874 -0.3015721032851158
18048657 0.4858408489658247 -0.3041671319885719
18049650 0.4742811750422078 -0.3047768207325266
18050643 0.4647064874606204 -0.30463334272651255
18051636 0.46134478609492346 -0.30724180854346006
18052629 0.44775424163467437 -0.3071380155478297
18053622 0.4413328532598827 -0.308487356712183
18054615 0.4357339365079911 -0.3099604503576351
18055608 0.42214058164918034 -0.30870885739732673
18056601 0.41721109984121185 -0.3098857234159926
18057594 0.40788782684871827 -0.3109012841184075
18058587 0.39566496200442064 -0.3091390069565203
18059580 0.3924255796989895 -0.3114555686783707
18060573 0.3795876424171701 -0.3100803000101373
18061566 0.3699095119800199 -0.3083974972707785
18062559 0.3654951036019558 -0.31046625663648103
18063552 0.3505432115451157 -0.3078780771881183
18064545 0.3448779843983536 -0.30842928551163806
18065538 0.33789616169478615 -0.3092464797334901
18066531 0.32333950055160576 -0.30499207322981725
18067524 0.31926561443761664 -0.3059956128475518
18068517 0.3080410595209938 -0.3042997668737995
18069510 0.2955913786906525 -0.3007258458645587
18070503 0.2918878029756591 -0.30278672242761323
18071496 0.2785248129306181 -0.29837663593963265
18072489 0.26934665627407267 -0.2961272563579534
18073482 0.263449710864863 -0.2969626819106021
18074475 0.24870100938745154 -0.29128351011083625
18075468 0.24309393983900274 -0.2907828595937059
18076461 0.23495924516934355 -0.2894769158620407
18077454 0.22084832346646288 -0.2826089150081365
18078447 0.21662649076734758 -0.2837035031263176
18079440 0.20478889286257643 -0.27881227842920797
18080433 0.19311507009671872 -0.27331477207843474
18081426 0.18838864230239072 -0.2747285434239001
18082419 0.1750048730660585 -0.2669632992945512
18083412 0.1674938872131966 -0.264012606973706
18084405 0.16069603275970085 -0.26316854101958637
18085398 0.14640606692189337 -0.2545378725201302
18086391 0.14110335894340295 -0.2535388759929009
18087384 0.13182575261510862 -0.24928960170275394
18088377 0.11937717830512029 -0.24054685203606438
18089370 0.11508046469978958 -0.24036427301360908
18090363 0.10290272991836916 -0.2328351443555721
18091356 0.09346853334636193 -0.2257948237357649
18092349 0.08853020057562141 -0.2258811677022084
18093342 0.07550879961178356 -0.21498317150497015
18094335 0.06910630577565845 -0.21108464276457486
18095328 0.06216776597349221 -0.2085169330784423
18096321 0.04924264300007619 -0.1964834508344352
18097314 0.04440566320125018 -0.19517436879155795
18098307 0.03538028373292595 -0.18798205306341179
18099300 0.02525683452766755 -0.17703027032122526
18100293 0.017651266987154024 -0.1696903928808405
18101286 0.01091550919222735 -0.16254958932728966
18102279 0.0033813416388963715 -0.1560354684816515
18103272 -0.002939597647046736 -0.15102183873814407
18104265 -0.013847318409617997 -0.1415472030054449
18105258 -0.018414344101560447 -0.14024522320010807
18106251 -0.026647663889468116 -0.13073142954846723
18107244 -0.03491862040711898 -0.1189915616615445
18108237 -0.0396189127430065 -0.11771205810663923
18109230 -0.048862582981667485 -0.10463586003599917
18110223 -0.05504932153114841 -0.0967522463580413
18111216 -0.06049824459809556 -0.09413718057049551
18112209 -0.06886692674781957 -0.07893103905611858
18113202 -0.07311210732081846 -0.07453715275843392
18114195 -0.07727585775737986 -0.0654464405704625
18115188 -0.08672128943872628 -0.05287597962372359
18116181 -0.09095155099575386 -0.05134666182201199
18117174 -0.09500604283867643 -0.03796979955003163
18118167 -0.1029413028142233 -0.027454458416651516
18119160 -0.10705406150521515 -0.024764310034049997
18120153 -0.11363826633061085 -0.009709512793444258
18121146 -0.11773687638814082 -0.0024827045016141353
18122139 -0.12245787171940592 0.0022652963019950626
18123132 -0.12779229546500923 0.01849681495045436
18124125 -0.13111822405774734 0.022835080143622923
18125118 -0.13616848547220226 0.03245215043284575
18126111 -0.14029326675420395 0.047085795908312696
18127104 -0.14359107798135842 0.049521446145364856
18128097 -0.14807684735213397 0.06334580980150499
18129090 -0.15049374907895338 0.07392664292372426
18130083 -0.15485839518700975 0.07762837678757585
18131076 -0.15779230226901583 0.09426849504783248
18132069 -0.16066348352723608 0.10070408715174817
18133062 -0.1641835882757885 0.10681692961908988
18134055 -0.16568845247422154 0.12310985873827285
18135048 -0.16849334453590673 0.12699219758099983
18136041 -0.17095313039172894 0.13863629209528883
18137034 -0.17231713847977417 0.15217007936357033
18138027 -0.17505680402075502 0.15489802031979186
18139020 -0.17680711716637157 0.1696547876973993
18140013 -0.17750599850662982 0.17926247180235216
18141006 -0.1801386167099172 0.18437115491389364
18141999 -0.1804957279367978 0.19995540525644703
18142992 -0.1821624256279561 0.20557475829532887
18143985 -0.18397990900739714 0.21370506327729538
18144978 -0.18247616221125332 0.2284292439962435
18145971 -0.18463518991749722 0.23195323509115892
18146964 -0.1851090025278368 0.24421899869551403
18147957 -0.1838327640170285 0.25605761743237254
18148950 -0.18612935114461818 0.25977744577694395
18149943 -0.1848163488796293 0.2740424723057873
18150936 -0.18435893646465126 0.281784681253274
18151929 -0.1860094164085432 0.2874350453895479
18152922 -0.18328509185307493 0.3024347404367435
18153915 -0.1844903183626868 0.3073484378840677
18154908 -0.18421342611128022 0.315758391596903
18155901 -0.18033028268257123 0.32874856981049627
18156894 -0.18203583619622313 0.3319554974952041
18157887 -0.18008995489507615 0.3441938195682566
18158880 -0.17784066815001756 0.35432619645008595
18159873 -0.1792720543382807 0.3583594371883348
18160866 -0.17528889257113656 0.3716282064115216
18161859 -0.17456543987105547 0.3771965461399726
18162852 -0.17490947169830987 0.38397513519161824
18163845 -0.16990713652183614 0.39676292170850935
18164838 -0.17057049772969093 0.4006504492561714
18165831 -0.1684361145376736 0.40949947724451474
18166824 -0.1638455394692141 0.4203909324433773
18167817 -0.1646912430345755 0.423964265578521
18168810 -0.16082312653393468 0.43499199081900997
18169803 -0.1580446226354581 0.44290160573525206
18170796 -0.1584030077688207 0.4472225478173395
18171789 -0.1527439411329333 0.458897986174967
18172782 -0.1515040009504909 0.4637416203429352
18173775 -0.1501379558376125 0.4699549674223834
18174768 -0.14407020794525688 0.4808759932686131
18175761 -0.1443113944124188 0.4837865259401741
18176754 -0.14082849517185855 0.4923773350115231
18177747 -0.13542701396481105 0.5013168557091581
18178740 -0.13580250519134943 0.5045282684966476
18179733 -0.13018588041292684 0.5142613637539238
18180726 -0.12750785633166403 0.5200140474521863
18181719 -0.1269022824354921 0.5246010411710523
18182712 -0.11950731854913574 0.5341193698630953
18183705 -0.11870291201967825 0.5378486832397983
18184698 -0.11573443758751405 0.5441965761476711
18185691 -0.10944968518967632 0.553075009807662
18186684 -0.1093517907713575 0.5557320514343318
18187677 -0.10400980824187737 0.5632321162752075
18188670 -0.09937466722675081 0.5699727637108125
18189663 -0.09875791472728782 0.5732002800406858
18190656 -0.09197013094897061 0.5818626904264452
18191649 -0.08954471619404812 0.5860593529865913
18192642 -0.08809909419636718 0.5906257702319401
18193635 -0.08088190674673103 0.598416725024109
18194628 -0.07996129813437082 0.6012013490311681
18195621 -0.0759614753644893 0.6077120138468961
18196614 -0.06919943637152838 0.6138696494945579
18197607 -0.06899333846876454 0.6168410949658438
18198600 -0.06299292432733383 0.6227939942756244
18199593 -0.058353989235933094 0.6275583425399947
18200586 -0.058146412892437715 0.6314308203328929
18201579 -0.05286902271168176 0.6373539876078544
18202572 -0.04816925279725909 0.6421492821057537
18203565 -0.04243154990584413 0.6472739921086755
18204558 -0.04207352065351617 0.6495199204143454
18205551 -0.03573438890018468 0.6554707952215283
18206544 -0.03060432339691117 0.6599761972919322
18207537 -0.0296934021249986 0.6629756266989306
18208530 -0.02266743370257162 0.6689149706067546
18209523 -0.0199818508258864 0.6718061107114601
18210516 -0.0175897185470275 0.6754468580312267
18211509 -0.010438025241904274 0.68086680619927
18212502 -0.00922805946506604 0.6829149174669028
18213495 -0.004434222655365446 0.6874772354663905
18214488 0.00142732353048489 0.691735597888896
18215481 0.002145798764008043 0.6941208396771525
18216474 0.00874110225373342 0.6991564032338645
18217467 0.012725506556148765 0.7020486924549751
18218460 0.014069550549929985 0.7047110429236825
18219453 0.02148836851502901 0.7092482938406021
18220446 0.023444986611150718 0.7118937512367856
18221439 0.026349485365822763 0.715138090731563
18222432 0.033502848066198236 0.7185313624025078
18223425 0.03422632850938761 0.7204031173884726
18224418 0.039746303211519264 0.7240621129227045
18225411 0.04507329759832652 0.7278881590441918
18226404 0.04590534118724407 0.7298063614773214
18227397 0.0525846288880176 0.7335313220622192
18228390 0.05539572602996975 0.7357588881729612
18229383 0.05751040319333096 0.738426271532797
18230376 0.06444022853748413 0.7421983081179934
18231369 0.06614456100667564 0.7434759455174919
18232362 0.06963887907623882 0.7462423147150736
18233355 0.07604761422952523 0.749308329709801
18234348 0.07700902962264775 0.7510024788757915
18235341 0.08287840264846524 0.7543091769525911
18236334 0.0871963030206169 0.7561654868315597
18237327 0.08825524991196543 0.7581188198118202
18238320 0.0951909575026249 0.7617458470226209
18239313 0.09757346168939988 0.7629209047223477
18240306 0.10036047217697819 0.7648610247293193
18241299 0.10629249633154106 0.7677381216473177
18242292 0.10763848437430396 0.7690337014287165
18243285 0.11236782939591149 0.7715296274726322
18244278 0.11774543244372557 0.7734380019589087
18245271 0.11830298618199547 0.7747741869283011
18246264 0.12389495842415624 0.7775157045234837
18247257 0.1276313971466638 0.7790419393715283
18248250 0.1289020430144614 0.7807823658872288
18249243 0.13537743809506145 0.7828053979524212
18250236 0.1370537520374985 0.7839044960704141
18251229 0.14027380164231626 0.7860770916782203
18252222 0.14622782370760437 0.787971867320006
18253215 0.1444531324204779 0.790349549462034
18254208 0.1516702534009369 0.7909358432644643
18255201 0.15645343718762875 0.7924630736226077
18256194 0.15740620924326096 0.7935136162774852
18257187 0.16317739229766298 0.7954814691153136
18258180 0.16567277714804907 0.7967989262638008
18259173 0.16765392548648375 0.7982181723132917
18260166 0.17365447978217277 0.79955850350316
18261159 0.1750564028405004 0.8003444220387247
18262152 0.17836760774343977 0.8024245586549978
18263145 0.18316563898300134 0.8037740376690066
18264138 0.18447553680179826 0.8044713754961317
18265131 0.18931073152050878 0.8056510488543017
18266124 0.19250734938034308 0.8066179557063101
18267117 0.19671808304274382 0.8068072540793885
18268110 0.19985108974294905 0.8093743282598267
18269103 0.20196457871010168 0.810215663799161
18270096 0.2036269117572548 0.8109691554248707
18271089 0.20915064335009925 0.8128599915971433
18272082 0.21089641170536316 0.8134442623546312
18273075 0.21450625110400445 0.8145877863604726
18274068 0.21843208571473316 0.8150548555539381
18275061 0.21954696112773925 0.8166013258692814
18276054 0.22443942676057566 0.8175686903528042
18277047 0.22743301818140502 0.8178927362562531
18278040 0.22854415539799836 0.8185582058164544
18279033 0.23390890613474816 0.8200094292611986
18280026 0.23545958372272122 0.8207036934335095
18281019 0.23794488726038387 0.8216851473167287
18282012 0.24263749434262677 0.8219982040526254
18283005 0.24317044295808035 0.8228762573798295
18283998 0.24730813228525358 0.8237196246986611
18284991 0.2515922607552209 0.8243901790384802
18285984 0.252366612343787 0.8250378237231294
18286977 0.2567097256049874 0.8256811772809333
18287970 0.25919234660337687 0.826240339839606
18288963 0.26096397113335884 0.8272123225519363
18289956 0.265557274006317 0.8280847800627145
18290949 0.2668413082001561 0.8281422175844032
18291942 0.26946592554135707 0.8288858648813912
18292935 0.27384178838010936 0.8291504882789087
18293928 0.27446529216722804 0.8298235362347054
18294921 0.27834927971462103 0.8308682463636298
18295914 0.28166822115426693 0.8309087173200355
18296907 0.282449681071404 0.8315676646779981
18297900 0.28716276300045734 0.8321301722647148
18298893 0.28865648892012535 0.8322973185034002
18299886 0.29044895733133513 0.8330042628642929
