# HZ S RI R 50
29000000 0.9989336203528606 -0.20407679703682985
29000991 0.9989215516271944 -0.20465675012274967
29001982 0.9984830433807328 -0.20507582673391506
29002973 0.9985686333113125 -0.20519802843649398
29003964 0.9982999967351208 -0.20479160928487616
29004955 0.9982291511972782 -0.2057679947721085
29005946 0.9976730998390703 -0.20627657918447914
29006937 0.9976605977571611 -0.2063111833875683
29007928 0.9977559576823604 -0.20622899320023802
29008919 0.9975083271351605 -0.20729207010287237
29009910 0.9972333961282518 -0.20689550524408296
29010901 0.9969295317024893 -0.20722981534006213
29011892 0.9970573855633311 -0.20773817618684107
29012883 0.9969369865659065 -0.20794532259722223
29013874 0.9969378844562584 -0.20840389632035403
29014865 0.9967171791746263 -0.20853533755894327
29015856 0.9966978153898328 -0.20893997500987424
29016847 0.9965657428741712 -0.20890125746727772
29017838 0.9962394076136946 -0.2089953907671144
29018829 0.9958212063964357 -0.209802140122226
29019820 0.9958361457871923 -0.21067059166620797
29020811 0.9958716680708788 -0.21051497914282916
29021802 0.9957434096151099 -0.21058916247268164
29022793 0.9955118804852143 -0.2114886310669288
29023784 0.9949850881438683 -0.2112764722504405
29024775 0.9947131532282872 -0.21170949057862495
29025766 0.9950387304707102 -0.21191195859129225
29026757 0.9950893885043199 -0.2119962853285421
29027748 0.9947905567871385 -0.21271732092976955
29028739 0.994576987008578 -0.21313911461438972
29029730 0.994312083285625 -0.21331707315426165
29030721 0.9940669826091645 -0.2135187731260674
29031712 0.9938783835980629 -0.2138941004417463
29032703 0.9940433234569989 -0.21414938918309576
29033694 0.9936997204779201 -0.2143128726652529
29034685 0.9937835204051084 -0.21479146858424075
29035676 0.9934680367815427 -0.21544794178130428
29036667 0.9933628500324523 -0.21538869480543307
29037658 0.9931258427914454 -0.2155099970255387
29038649 0.9926982338225998 -0.21572826286756255
29039640 0.9927010998606194 -0.21609211282240695
29040631 0.9929129473649537 -0.21659352907537952
29041622 0.99256288834086 -0.21678101817272818
29042613 0.9922322704170318 -0.21709746887597198
29043604 0.9919941886988248 -0.21765350971505856
29044595 0.9916916825222593 -0.21788077605976397
29045586 0.9916938681713009 -0.21789125261677794
29046577 0.9917530322686483 -0.2184745545189791
29047568 0.9916495486470759 -0.21883432313388732
29048559 0.9915711690402025 -0.21918408769996636
29049550 0.9909791534901238 -0.21955940317880157
29050541 0.9906925303267688 -0.22008215829287364
29051532 0.9906163459344642 -0.2201515683968456
29052523 0.9907652540110069 -0.22021345797610245
29053514 0.989430897142447 -0.22467809119122784
29054505 0.9906250304836077 -0.22111732230281153
29055496 0.9900779768692264 -0.22130413096854848
29056487 0.9899240230541951 -0.22131706190216383
29057478 0.9894917835131065 -0.22251581360134962
29058469 0.9894913275002439 -0.22235648790431714
29059460 0.9894217094245523 -0.22277760518275963
29060451 0.9894773239045914 -0.22285867122943148
29061442 0.9893752825369132 -0.22305465231723484
29062433 0.9886364113038825 -0.22410029600005732
29063424 0.988281945467312 -0.22430597074092387
29064415 0.9883758989317588 -0.22424327557121143
29065406 0.9884603516285546 -0.22472385222268937
29066397 0.9881542371740148 -0.2251371275270419
29067388 0.987934663446781 -0.22554121020544526
29068379 0.988179864171853 -0.22577950878874553
29069370 0.9874605396450737 -0.22591431782850155
29070361 0.9873149413721417 -0.22629018237999232
29071352 0.9876211262399235 -0.22644829532505983
29072343 0.9871496558236447 -0.22678859090064563
29073334 0.9872424123015191 -0.22702268165677714
29074325 0.9870765982107073 -0.2274329517470862
29075316 0.9866277453244977 -0.22769901023932582
29076307 0.9861547814019753 -0.2280237526239209
29077298 0.9860273561519487 -0.2283783057310399
29078289 0.9857923265685808 -0.2288096465228955
29079280 0.986045407658093 -0.22903930403679626
29080271 0.9856132322672628 -0.22980038438414238
29081262 0.9891079650173 -0.21761544646671518
29082253 0.985339440930123 -0.23022576411699938
29083244 0.9852769474172418 -0.23054190783748724
29084235 0.9845936438614118 -0.23130072640963334
29085226 0.9840605946236067 -0.2315523430607878
29086217 0.9846892071939868 -0.23182949112286086
29087208 0.9843562480470037 -0.23169501811361112
29088199 0.9840155193581045 -0.23254928769179317
29089190 0.9836160774283818 -0.23279685506513983
29090181 0.9836254371535555 -0.2331689077844988
29091172 0.9832462723561528 -0.2330829289500309
29092163 0.983019523513831 -0.23360725692584386
29093154 0.9832320197296749 -0.23393139309945854
29094145 0.9829360934985438 -0.23439709994708446
29095136 0.9830138846594693 -0.23465938013846901
29096127 0.9827098528418395 -0.2346799902395566
29097118 0.9822221499947147 -0.23567814442363047
29098109 0.9820503436190469 -0.23553577073971887
29099100 0.9822612076495084 -0.23576246530940237
29100091 0.9817252709256596 -0.23638163490912667
29101082 0.9816823199856175 -0.23682637957632915
29102073 0.9810213116677498 -0.23673571575965915
29103064 0.980924956892401 -0.23723709189287467
29104055 0.9806078371367773 -0.2374678900405174
29105046 0.9805223229869583 -0.2381590024084455
29106037 0.9806259326579659 -0.2385617480169615
29107028 0.9804534452298337 -0.2385350101844348
29108019 0.9801395958562433 -0.2393636626652454
29109010 0.9736433953523543 -0.2571081702775322
29110001 0.9799615714521341 -0.23970598410118207
29110992 0.9792630726672896 -0.24060508582403822
29111983 0.9793415402906316 -0.24090529263302507
29112974 0.9788115592334651 -0.2411105143580932
29113965 0.9788161980972152 -0.24130323705340187
29114956 0.9784685998783544 -0.24165330156328646
29115947 0.977840822088742 -0.24251964462961814
29116938 0.9779663181951836 -0.24242788531784717
29117929 0.9778417706092608 -0.24237811767437553
29118920 0.9776372867036142 -0.2431158410223553
29119911 0.977020493808179 -0.2436318582427022
29120902 0.977039790301634 -0.24353575191264681
29121893 0.9764501110628684 -0.24433015676696807
29122884 0.9766883886898564 -0.24453982686065373
29123875 0.9764461098999995 -0.2449106434578198
29124866 0.9762152086566472 -0.24529647021785808
29125857 0.976141860229866 -0.24546807466130524
29126848 0.9760716245945887 -0.24602414773360387
29127839 0.9753582694822334 -0.24677428573548732
29128830 0.9752074914592536 -0.2466771764033247
29129821 0.9750732855424189 -0.24711363173823325
29130812 0.9754241973764299 -0.2473586794977277
29131803 0.9749897595889282 -0.24772318222369294
29132794 0.974784031367523 -0.24849167316239468
29133785 0.9741942886277548 -0.24827180341679536
29134776 0.9736242306531359 -0.2486513417184212
29135767 0.9732893301649291 -0.2492641891694233
29136758 0.9733490914455772 -0.2495977303612882
29137749 0.9734582108945525 -0.2496793217754081
29138740 0.9732982275528199 -0.25069891414753326
29139731 0.9725838343228995 -0.2509804035532386
29140722 0.9722137710509315 -0.25131496013586924
29141713 0.9718360238703211 -0.25209358894059963
29142704 0.9716258725167402 -0.25170894190856463
29143695 0.971709712411114 -0.25235005482845146
29144686 0.9716439962547087 -0.2524548389142901
29145677 0.9710036082077251 -0.2533685586805278
29146668 0.9709424430304049 -0.25378656680963857
29147659 0.9708485888016516 -0.25364252878379207
29148650 0.9706381449956545 -0.2539296991519782
29149641 0.9701534339420922 -0.2543771000224567
29150632 0.970100112406986 -0.2552311282077998
29151623 0.9698624221220262 -0.2555173402948066
29152614 0.9696043854952477 -0.25574311936184957
29153605 0.9691878469851806 -0.256162522297293
29154596 0.9686663145996881 -0.256884534901612
29155587 0.9684127223713861 -0.2571809930632229
29156578 0.9684282275420789 -0.25736302403790157
29157569 0.9683098902630566 -0.2575458654429573
29158560 0.968232723257383 -0.25802484418580474
29159551 0.9676198209807537 -0.2583127111547547
29160542 0.9671287366403154 -0.25902668136033086
29161533 0.9669126350336386 -0.2592231196801034
29162524 0.966885066980663 -0.25944396940736963
29163515 0.9666527515388934 -0.2598724645478148
29164506 0.9668217784265345 -0.26034900901550867
29165497 0.9664151687002958 -0.2607475222432143
29166488 0.9659361119082228 -0.2610268852418541
29167479 0.9656140117959181 -0.26155597618791104
29168470 0.965232935487437 -0.26243312387683115
29169461 0.9649449598856655 -0.2624299476539836
29170452 0.9650224592555087 -0.262805137414381
29171443 0.964583816872743 -0.2631487808800352
29172434 0.9641496765334533 -0.2640680637652609
29173425 0.9640184602619091 -0.26432154519334783
29174416 0.9636494356302022 -0.26446706344115845
29175407 0.9630304822840539 -0.26505031354850034
29176398 0.962805915853214 -0.26542236242294304
29177389 0.9627141318668597 -0.26570727508282144
29178380 0.962536533694326 -0.2665772585511005
29179371 0.9622030572050129 -0.2667298057726032
29180362 0.9617978812827908 -0.266796580439744
29181353 0.9615170441343929 -0.2671980353269928
29182344 0.961133813134486 -0.26771131474069665
29183335 0.9613729191451456 -0.26831717567103097
29184326 0.9609762753115739 -0.2683074594166055
29185317 0.9602499130705053 -0.26935926699172924
29186308 0.9604585839402039 -0.2695496043858738
29187299 0.9663068996643386 -0.25126941853485096
29188290 0.9595087235050758 -0.2702988430932338
29189281 0.9589439850318882 -0.27034625906812876
29190272 0.9587984047634883 -0.27083430410509746
29191263 0.9586102678854558 -0.2712892131221042
29192254 0.9585219184703412 -0.2716503289262567
29193245 0.9581216574556981 -0.27221455120888255
29194236 0.9579916788506418 -0.2724607406488717
29195227 0.9573646235842553 -0.27294539820879316
29196218 0.9569449687694388 -0.2734475005268114
29197209 0.9565660743013881 -0.2738992840340958
29198200 0.9567765532406161 -0.27415542503454315
29199191 0.9559555055155831 -0.27520383505706936
29200182 0.9556681241452821 -0.2749735977680378
29201173 0.9554577719383475 -0.27559897325732247
29202164 0.9553432990284898 -0.27585905109034514
29203155 0.9546326153515196 -0.27600809685353095
29204146 0.954281105875819 -0.27706797445008485
29205137 0.9542499549346297 -0.27726507778492354
29206128 0.954039833098239 -0.27751579469866167
29207119 0.9535375538320937 -0.27846345591521604
29208110 0.9530438788914622 -0.27917846493818194
29209101 0.9530247206831468 -0.2788685133184037
29210092 0.9523552608560785 -0.2794072817373436
29211083 0.9522463323172107 -0.279740731283115
29212074 0.9518780197541113 -0.2806626923899616
29213065 0.9516954738107332 -0.2809234947224491
29214056 0.9512721268168778 -0.28104296457405464
29215047 0.9506780953622634 -0.2815522645483229
29216038 0.9503369388510434 -0.2822651395249205
29217029 0.9501292195023248 -0.2825543403042198
29218020 0.9498157489684665 -0.28292551425829426
29219011 0.9498434395722216 -0.2832127419781125
29220002 0.9491305757154115 -0.2835792161671112
29220993 0.9487853016246836 -0.2839586242847179
29221984 0.948600997651225 -0.2846814520590105
29222975 0.9480850795444136 -0.2850506035902451
29223966 0.9477410197694573 -0.28534197095004865
29224957 0.9475210644583677 -0.2857896826453642
29225948 0.9473741549688959 -0.28654457635123276
29226939 0.9470291205879467 -0.28638135201824877
29227930 0.9461990654062111 -0.2873252176106275
29228921 0.94589577502159 -0.28782748966778776
29229912 0.9454792672662417 -0.28846791472884037
29230903 0.945392143862757 -0.2883688949493419
29231894 0.9445737804271611 -0.2892062531648933
29232885 0.9447226971560285 -0.2893355249907951
29233876 0.9440846101372212 -0.29020280133915927
29234867 0.9435935761886307 -0.2901053483446747
29235858 0.943238164733134 -0.29072678516092226
29236849 0.9431356518480126 -0.29128730433644057
29237840 0.9429709709116519 -0.291426078861781
29238831 0.9419337232313338 -0.2924477476294175
29239822 0.9417759745815255 -0.2931080653803784
29240813 0.941480729543781 -0.2930121160285074
29241804 0.9410564079974941 -0.29339775390091055
29242795 0.9445684738970505 -0.2837945404971887
29243786 0.9406089182046811 -0.29475408695876626
29244777 0.9399599045698126 -0.29479559835074864
29245768 0.9396454031847871 -0.29525052651677947
29246759 0.9392951522797699 -0.29594296058787184
29247750 0.9388641417795635 -0.29635839042459816
29248741 0.9384962699091894 -0.2963948542866243
29249732 0.9377568994392782 -0.29715951431185766
29250723 0.9374645296852607 -0.2977476191740171
29251714 0.9373738209474457 -0.297855958393288
29252705 0.9363630700940263 -0.29851250035763177
29253696 0.9365484437252378 -0.29910934186700927
29254687 0.9362277837064356 -0.29973788610700364
29255678 0.935506260166996 -0.3000646633250418
29256669 0.9352346213396808 -0.30068111303545886
29257660 0.9345588422201604 -0.30118577735087226
29258651 0.9343068132237647 -0.30156329669377446
29259642 0.9338480414520816 -0.30157969778687693
29260633 0.9332239649602295 -0.3030423052307082
29261624 0.9330921269514335 -0.3032285621888185
29262615 0.9329035082224181 -0.3032935092667456
29263606 0.9322912904523106 -0.3038162095970908
29264597 0.9318351174576195 -0.3046293379041767
29265588 0.9310108309551592 -0.3051640952214883
29266579 0.9307376808062399 -0.3055418704789473
29267570 0.9303023722771474 -0.30584614158915696
29268561 0.9303074209475947 -0.30626156447441705
29269552 0.9299275704211104 -0.3067071528801818
29270543 0.9260990257710224 -0.3147799077792649
29271534 0.928582115406726 -0.3076654003902022
29272525 0.9284260633149778 -0.30787068224936737
29273516 0.9278096291980583 -0.3088964355536572
29274507 0.9274760004831937 -0.30914242790263985
29275498 0.9273053974936917 -0.30954763876632385
29276489 0.9263540713486109 -0.3099985488025155
29277480 0.9261072824783182 -0.310528331993704
29278471 0.9258116303067632 -0.31100473491738606
29279462 0.9247708467422021 -0.3114847251498826
29280453 0.9248900249338898 -0.3118730890463405
29281444 0.9241983063266399 -0.31252752576458004
29282435 0.923895257552193 -0.31292848570528115
29283426 0.9234204670637042 -0.31322569532440747
29284417 0.9225852424021909 -0.3137024597561722
29285408 0.9220484295324668 -0.31501553051155584
29286399 0.921870467321969 -0.31488972310688296
29287390 0.9211833580810196 -0.315619074713054
29288381 0.9207944583383313 -0.3161662126874804
29289372 0.9205871413996236 -0.3161330574774923
29290363 0.9196795231963517 -0.31669032527978036
29291354 0.9189202400347365 -0.31775806309158183
29292345 0.9187396571612042 -0.3185506301613379
29293336 0.9181763747752112 -0.3184864390213731
29294327 0.9179120967550586 -0.31881288055493845
29295318 0.9172777390217323 -0.3199181868416739
29296309 0.9172937839704024 -0.31986478128395024
29297300 0.9159843345385952 -0.3205233173196067
29298291 0.9230978813309063 -0.3020994702217128
29299282 0.9153272459997613 -0.32156303222434235
29300273 0.9144405942322622 -0.32236709684997605
29301264 0.9140126224066775 -0.3228746480127319
29302255 0.9135843418649365 -0.32285524578215874
29303246 0.9130861878508328 -0.3235838614420347
29304237 0.9125041155231521 -0.3242017286855606
29305228 0.91231501280284 -0.32453398219561647
29306219 0.9120444913558095 -0.3252827916437964
29307210 0.911078358270234 -0.32511404241810554
29308201 0.9102374393147957 -0.32639816989967285
29309192 0.9100460579807474 -0.32688560453275367
29310183 0.9093273763779158 -0.32705511848852586
29311174 0.9089393917870382 -0.32740227129765487
29312165 0.9086810325845178 -0.32836765658758
29313156 0.9081816108972574 -0.32851670939956296
29314147 0.9074020153378687 -0.32919348598286696
29315138 0.9069997299091592 -0.3297263453680823
29316129 0.9057305440648453 -0.3300995616986733
29317120 0.9061125281516422 -0.33044603598679684
29318111 0.905131571256476 -0.33159764221896443
29319102 0.9047467097717705 -0.3318427160100186
29320093 0.9042594330754536 -0.3320423889172355
29321084 0.9036002694954589 -0.3328048421621231
29322075 0.9022519610941885 -0.3339542783535393
29323066 0.9019589320316707 -0.33421148700169123
29324057 0.9014062702135862 -0.3344842806101502
29325048 0.901311609574275 -0.33452966385720206
29326039 0.9004155710960189 -0.3354752886004983
29327030 0.8994404957944673 -0.33633524524670116
29328021 0.898935752460098 -0.3368143129062775
29329012 0.8983950384004775 -0.33757387362928687
29330003 0.8982085209546801 -0.33766551652372223
29330994 0.8975285870538706 -0.3381585323656004
29331985 0.8971732321433432 -0.3386738460961476
29332976 0.8963981217340723 -0.33926403980955894
29333967 0.8958947180342437 -0.3396672136763525
29334958 0.8948631429000224 -0.3399288081100414
29335949 0.8943207021837547 -0.3412505343553269
29336940 0.8942211740425908 -0.34119889191125
29337931 0.8934649902402267 -0.34165606294051876
29338922 0.8926885488405785 -0.34197237205342446
29339913 0.8916268058744884 -0.343271440968039
29340904 0.891169552153172 -0.34360973084800245
29341895 0.8903828301817561 -0.3441412087239588
29342886 0.8897007661583937 -0.3446644634705499
29343877 0.8895266141918992 -0.3450050876223092
29344868 0.8891791871499101 -0.34554455040137605
29345859 0.8882991213264351 -0.3460786449080747
29346850 0.8873666408343311 -0.34706317977323775
29347841 0.8866945842628757 -0.34729038727679107
29348832 0.8854209809329068 -0.34820113644118444
29349823 0.8852488513894007 -0.3482148476826058
29350814 0.884788964359389 -0.3488242704039441
29351805 0.8846046244073651 -0.34922762846700006
29352796 0.8835109557324177 -0.3506589696360403
29353787 0.8821240308500742 -0.35097090310706114
29354778 0.8821283274544359 -0.35119095591770666
29355769 0.8812048102187349 -0.3517607326269326
29356760 0.8807317919925459 -0.3517738527211151
29357751 0.8802841421672107 -0.35309211103571897
29358742 0.8793807621217665 -0.3533640572258183
29359733 0.8782821514105859 -0.3539778738072224
29360724 0.8775190058429008 -0.3544709551449507
29361715 0.876785715044572 -0.3553970102453109
29362706 0.8761027660003717 -0.35543242489398114
29363697 0.8754222657771851 -0.3561046507909394
29364688 0.8749541186343464 -0.35663882954021453
29365679 0.8746314209023885 -0.3572812127487398
29366670 0.8735289298976627 -0.3577409430627777
29367661 0.8724277139225557 -0.3585312613139784
29368652 0.8720932620291005 -0.35902375124085323
29369643 0.8711399527490381 -0.3593499733942702
29370634 0.8705839070666965 -0.35976504319433916
29371625 0.8703023564248752 -0.36045069449475137
29372616 0.8691345083726808 -0.3610449630373708
29373607 0.8681079956262794 -0.36179617838113654
29374598 0.8673805441510962 -0.36230634256907907
29375589 0.8663705092724842 -0.3628159600104726
29376580 0.866199136972445 -0.36332964995050476
29377571 0.8652316797227196 -0.36412253304697595
29378562 0.8641565282789225 -0.36464601028154575
29379553 0.8637507590720728 -0.36479632794922684
29380544 0.8624562171744105 -0.3656345808026589
29381535 0.8616674593780145 -0.366411078712667
29382526 0.8612715170959395 -0.36664457171634485
29383517 0.8598552814177449 -0.36740221003467716
29384508 0.8595807963875115 -0.3676725371261545
29385499 0.8588927233810469 -0.36843680525681255
29386490 0.8575636809689694 -0.36903107313996225
29387481 0.8569496697199248 -0.3694727535235403
29388472 0.8558895871637141 -0.3702771328205028
29389463 0.8553013453744006 -0.37079871735350783
29390454 0.8550327736456085 -0.37067837932585423
29391445 0.8536402100568797 -0.3719597305047138
29392436 0.8454982569424038 -0.3873369967432515
29393427 0.85223600134201 -0.37300871068083963
29394418 0.8507090439074294 -0.373762062167285
29395409 0.8503506084652209 -0.3740870803124818
29396400 0.8494714525376444 -0.3747890327890941
29397391 0.8485340687293391 -0.3748351182451121
29398382 0.8476272939115295 -0.3758479237372929
29399373 0.8467073458273815 -0.3761933994767385
29400364 0.845744970591257 -0.3767933884603625
29401355 0.8449417898049992 -0.3774750081376848
29402346 0.8439454988456154 -0.37792587803827377
29403337 0.8432451109745825 -0.37849299060775293
29404328 0.8422821875028546 -0.37898936411307177
29405319 0.8411428025894694 -0.37955556526970374
29406310 0.8403838532591011 -0.38038816211177173
29407301 0.8392922756272101 -0.3809225662459308
