# HZ S RI R 50
21000000 0.8848165996879401 -0.052447172652284074
21000992 0.8828960642606701 -0.05367919939737466
21001984 0.8817031955075583 -0.05537849283197758
21002976 0.8814643724469746 -0.05559459401309948
21003968 0.8795818864145204 -0.05731462618123473
21004960 0.8777161806764973 -0.05885830983646037
21005952 0.8774185501032785 -0.059907765990853984
21006944 0.8753720141836008 -0.06256049576313306
21007936 0.8739083622789481 -0.06378001468202966
21008928 0.8731630310110904 -0.06423688949476572
21009920 0.8709477617310412 -0.06682643680415443
21010912 0.8699219809352599 -0.06789684520377953
21011904 0.8689616754381672 -0.06896256515736505
21012896 0.8668960379309166 -0.07129168067899469
21013888 0.8659881260757036 -0.0717574302402122
21014880 0.8638801911720595 -0.07359898819105691
21015872 0.862214428542995 -0.07529938747456794
21016864 0.861874660968165 -0.07605520333114836
21017856 0.8592888914166986 -0.07826912847023498
21018848 0.8582421215451369 -0.07931250796868816
21019840 0.8571104195524558 -0.08054462595993364
21020832 0.8541468328982901 -0.08320516769124223
21021824 0.853445905562852 -0.08386592095094048
21022816 0.8521065687674241 -0.08546792304547782
21023808 0.8498012346968753 -0.08700824998159233
21024800 0.8492654709501697 -0.08769069550596158
21025792 0.8464951611222298 -0.09023830054723547
21026784 0.844778968245683 -0.09161386065889505
21027776 0.8442145570283583 -0.09228257376243176
21028768 0.8415943469464218 -0.09453196295405863
21029760 0.8403301347007194 -0.09584639575765949
21030752 0.8390127399056628 -0.09669146507071
21031744 0.8357202236722605 -0.09866399975220429
21032736 0.8350596285005191 -0.09977907123491661
21033728 0.8331327676025323 -0.1013410934874233
21034720 0.8308187350151696 -0.10315567259552458
21035712 0.8299177397432296 -0.10431556095296779
21036704 0.8272939219707438 -0.10574987049746948
21037696 0.8254441635210326 -0.10741233727156574
21038688 0.8243493397618713 -0.1080677787637513
21039680 0.8212682139224705 -0.11044762032076262
21040672 0.8199241854924355 -0.11195041226789658
21041664 0.8182160865265264 -0.11318006716833713
21042656 0.8152734596699351 -0.1143592106298341
21043648 0.814518415760424 -0.11527075642188873
21044640 0.8119077597223285 -0.11711387825105678
21045632 0.8093230055657036 -0.11904325295920341
21046624 0.8085349914826054 -0.119859152691346
21047616 0.8056026113187675 -0.12180009017077935
21048608 0.8039624529440937 -0.12272475481370522
21049600 0.8018868297286746 -0.12400557080686388
21050592 0.7986658439988595 -0.12656426117300953
21051584 0.797463177594533 -0.12730323674875033
21052576 0.7954170390417374 -0.12828798225095098
21053568 0.7923217428133283 -0.1300524662949898
21054560 0.7911338602859066 -0.13108889088367612
21055552 0.788312335633174 -0.13281750553958707
21056544 0.7849026959107469 -0.13653612263530984
21057536 0.7845949122686162 -0.13534006844494992
21058528 0.7813955815994443 -0.1370875039214843
21059520 0.7793319164870222 -0.13794054375929854
21060512 0.7773895222461981 -0.13906482415313065
21061504 0.7736431126775942 -0.14130153616270558
21062496 0.7723867276080009 -0.14181089098503669
21063488 0.7700601957702369 -0.14306212344926936
21064480 0.7668817730404462 -0.14530584056695822
21065472 0.7655364479926494 -0.14619445252242735
21066464 0.7621413814820697 -0.14806996205428352
21067456 0.7592636659182689 -0.14881557168659537
21068448 0.7577885584534808 -0.1496911509091451
21069440 0.7540339860083657 -0.1517269096097084
21070432 0.7517941930290769 -0.1528880302357244
21071424 0.7501728280025977 -0.15404101518826194
21072416 0.7459048119037566 -0.1556938331196705
21073408 0.744886070211284 -0.1558567604284208
21074400 0.7417618704457913 -0.1574888415882844
21075392 0.7382027925438708 -0.15903382843018798
21076384 0.736814827366595 -0.15993763721205884
21077376 0.7334074089741789 -0.16132934519354059
21078368 0.7302530220387818 -0.16256979113468517
21079360 0.7286437185555211 -0.16332454805100083
21080352 0.7241161987412121 -0.16484107477523907
21081344 0.7221274248501972 -0.16608840696789773
21082336 0.719922512002076 -0.16727200683934296
21083328 0.7158426529286163 -0.1682883223069691
21084320 0.7138243709326294 -0.16900597965954958
21085312 0.7103584564544397 -0.17088442218199454
21086304 0.7067392092672247 -0.17152149591505325
21087296 0.7055283635176918 -0.17251196059757523
21088288 0.7013640618713168 -0.17406433236996396
21089280 0.6983921545769134 -0.17474756273580644
21090272 0.6962197250368585 -0.17586971924986364
21091264 0.6912376950742538 -0.17691664742403948
21092256 0.6896175659681929 -0.17739108439455195
21093248 0.6864428527579695 -0.17845091392477436
21094240 0.6822166479701965 -0.17979263873420334
21095232 0.6805206712626025 -0.18082141961701487
21096224 0.6761547955820648 -0.18199304463140992
21097216 0.6728232685138518 -0.1827574970272418
21098208 0.6710997727126095 -0.18360673076614595
21099200 0.6662813461253801 -0.18439646387088432
21100192 0.6636160632912191 -0.1874078915321354
21101184 0.660225990848628 -0.1883452207679488
21102176 0.6571674400482984 -0.18880176674461374
21103168 0.6541958789054207 -0.1877895901902487
21104160 0.6491624195450079 -0.18862614460732796
21105152 0.6460802122059629 -0.18928441502646906
21106144 0.6441386775281938 -0.1901625350287479
21107136 0.6387126782286956 -0.1909812335405278
21108128 0.6362464687950766 -0.1914378834305975
21109120 0.6329685420856649 -0.19210261284752778
21110112 0.6275744388972473 -0.19319749955557927
21111104 0.6254290390715299 -0.1932548643578369
21112096 0.6215213429909239 -0.19437045207321763
21113088 0.6175455404746248 -0.1944468958641626
21114080 0.6152609721270921 -0.19494614382977912
21115072 0.6092267250771713 -0.19573895285191947
21116064 0.6068169291760883 -0.19602099452388527
21117056 0.6038193935398706 -0.19619831224930775
21118048 0.5986194666248392 -0.19690658983162118
21119040 0.5958647116161021 -0.1973405808716629
21120032 0.5922289838717677 -0.1971926905820826
21121024 0.5871439490688924 -0.1974140336282322
21122016 0.585017636317055 -0.19784700245965506
21123008 0.5796692300201923 -0.19843361853756916
21124000 0.5756121264808852 -0.1984403714171027
21124992 0.5778796134434023 -0.18817567711621358
21125984 0.5671678708361371 -0.199195087005905
21126976 0.5644677824271023 -0.1992972111129644
21127968 0.5610788821338936 -0.19920721338735925
21128960 0.5550542454441731 -0.1985551301475226
21129952 0.5528800996057455 -0.19840329079632507
21130944 0.5482267581975907 -0.19850997484697785
21131936 0.5431254366043808 -0.19835447140736184
21132928 0.5409328278961526 -0.19871788427574563
21133920 0.5361249279464128 -0.19816618254459945
21134912 0.5312367796211999 -0.19808869531455786
21135904 0.5282466478409259 -0.19829375106458452
21136896 0.522740187673089 -0.19753961493407482
21137888 0.5193341941094843 -0.1971843566668292
21138880 0.5159122349207984 -0.19666489499949974
21139872 0.5195803686409515 -0.17518827454513883
21140864 0.5072181959253862 -0.19675845784230706
21141856 0.5022505097156807 -0.1957000308981623
21142848 0.49728075879430483 -0.19476202575959298
21143840 0.4948424433647632 -0.1950210327543978
21144832 0.4886555111424386 -0.193769845865111
21145824 0.4845663095358933 -0.1937322013496122
21146816 0.4813439535314417 -0.19329956326028672
21147808 0.47587652979287404 -0.19151658344741385
21148800 0.47239860892331587 -0.1912340317327575
21149792 0.46784625335483493 -0.19043857759756397
21150784 0.4622999025063511 -0.1889358566093833
21151776 0.4594638441204773 -0.18835073835545732
21152768 0.4544077334254192 -0.1870273558870251
21153760 0.4498724456392288 -0.18571201968446777
21154752 0.4475470527653528 -0.18499646333896932
21155744 0.44053321649119526 -0.18384534704187683
21156736 0.43696571532182515 -0.1827754638158613
21157728 0.43268118616033624 -0.18206152186029384
21158720 0.4268301014223466 -0.17979929340964376
21159712 0.4235406407919595 -0.17973465798826785
21160704 0.41867850066820056 -0.17811000724616957
21161696 0.4133792116771632 -0.17602892422769345
21162688 0.409930583157239 -0.17495047961335308
21163680 0.40455048856029824 -0.17299866050608737
21164672 0.3997899180215408 -0.1714922801975449
21165664 0.3962516622015251 -0.17304670136160552
21166656 0.3902758659162028 -0.16966469299561057
21167648 0.3862752978036662 -0.1684380140737529
21168640 0.38244317236076936 -0.1673374387071514
21169632 0.37647572165983834 -0.16410692226988807
21170624 0.37348621085496914 -0.16336161090410553
21171616 0.37309222501789574 -0.15264238837018185
21172608 0.3632932745462304 -0.15842738448845675
21173600 0.3601134010593777 -0.1577246775964332
21174592 0.35404957680654 -0.15473517822774083
21175584 0.35027982340604186 -0.1526798187300884
21176576 0.34639018496086155 -0.1513224398742352
21177568 0.3407167377591947 -0.14755437631596122
21178560 0.3371780636889528 -0.1460471096944557
21179552 0.33298069596641894 -0.14337838789951388
21180544 0.32713848300437814 -0.1393356630111424
21181536 0.32427820925238715 -0.1390108677768831
21182528 0.3190761445231142 -0.13554249444643246
21183520 0.31421076876034404 -0.1320217813253763
21184512 0.3111786271324921 -0.13160432547445805
21185504 0.30555945003791957 -0.1260817891670325
21186496 0.30203745520323105 -0.12407634293599672
21187488 0.29825276255793043 -0.12246452606766194
21188480 0.2927068167146116 -0.11735178460494702
21189472 0.2893101009330884 -0.11626402351413422
21190464 0.2850135525160501 -0.1124009973303379
21191456 0.2801800685706941 -0.1081002834688028
21192448 0.27706074166789874 -0.10708252823699894
21193440 0.2721295967474883 -0.10231066275540855
21194432 0.2681230580690645 -0.09893408184096349
21195424 0.2646281591186204 -0.09681910115055282
21196416 0.25966435478914307 -0.091600815332291
21197408 0.25650288758762296 -0.08939140926623472
21198400 0.2521069642139259 -0.08644459574503142
21199392 0.24708706088838558 -0.0810029848277442
21200384 0.24415603162014637 -0.0791415261122632
21201376 0.2368534898277041 -0.08136134233773384
21202368 0.23660665913774107 -0.07212034784730423
21203360 0.23169889071161714 -0.06564088000285499
21204352 0.22809751685387147 -0.06279092571424522
21205344 0.2246062432346204 -0.059615842704535044
21206336 0.22010971943389868 -0.053656931732726225
21207328 0.21759443587236 -0.05122848404242548
21208320 0.21328673039471965 -0.04657597413964901
21209312 0.20983665820657538 -0.041179278147660946
21210304 0.20685775791278704 -0.03955255548936151
21211296 0.2028548134611404 -0.033520219173514214
21212288 0.19992779589455312 -0.02951158414923891
21213280 0.19591630984003042 -0.026591791171319365
21214272 0.19232605589046187 -0.020253666029599483
21215264 0.18962777032310515 -0.017078470238463574
21216256 0.18650950035204125 -0.012642253471324272
21217248 0.18330050041136872 -0.0064049497289832835
21218240 0.1805208957306102 -0.004028644733809037
21219232 0.17693507687230514 0.0012591182099970764
21220224 0.17411489166172303 0.006813534860673273
21221216 0.17131120339645897 0.009800807101278095
21222208 0.16817592056802677 0.016243049275508833
21223200 0.1658808599711186 0.01979407342993432
21224192 0.16290483075524562 0.023477418767665754
21225184 0.1600882729178883 0.030443172000177363
21226176 0.15796635105023862 0.03384581145249507
21227168 0.15494821665202613 0.038726494260129016
21228160 0.1528244262899096 0.04513088915735123
21229152 0.14987614537045293 0.0477441786706162
21230144 0.14762690659434508 0.05367755603784972
21231136 0.14543667191818876 0.059221849510790556
21232128 0.14269736510141648 0.06247685411737227
21233120 0.14085968658904766 0.06986403447895077
21234112 0.13884484416273124 0.0739297203382523
21235104 0.1363704642154081 0.0780288054619631
21236096 0.13451864806644723 0.08502716097382962
21237088 0.13234037166797957 0.08868895251767867
21238080 0.13087585064529342 0.09401266054146538
21239072 0.12926256834035119 0.09999908328282446
21240064 0.12730758829587463 0.10346018878263476
21241056 0.12534009546306907 0.10993484731923073
21242048 0.12405726205258749 0.11522273338112493
21243040 0.12195650503087696 0.11928665284335703
21244032 0.12105647548757849 0.12604973214783344
21245024 0.1193833004245093 0.12973031922366463
21246016 0.1177334085714247 0.13481270726323175
21247008 0.11685325320737511 0.14142320156839158
21248000 0.11506959168830262 0.14557662575350985
21248992 0.11444505678018142 0.15122446489893984
21249984 0.1137297423885403 0.1572902116557586
21250976 0.11198401231083134 0.16098799749046502
21251968 0.11092835982076223 0.1672688297068636
21252960 0.11045720930455913 0.1721775120769519
21253952 0.10887938664835098 0.17663505080308237
21254944 0.10904446266807791 0.183618637190029
21255936 0.10778671717427872 0.18770635354370155
21256928 0.10689020205548423 0.192689291598724
21257920 0.10697517046738121 0.19951507318981285
21258912 0.10576925534180621 0.20292829492051498
21259904 0.10560815839999238 0.20906283482474267
21260896 0.10574490533675512 0.21456733344526463
21261888 0.10434417306534925 0.21867483985206865
21262880 0.10438417545201886 0.22535408559389075
21263872 0.10387186718947308 0.23006151425817237
21264864 0.10338077580557525 0.2345577638671024
21265856 0.10410906351906236 0.24127906260680315
21266848 0.10363530021930785 0.24528424707511132
21267840 0.10359417552180948 0.25068509740673195
21268832 0.10408392488147274 0.25651141047774406
21269824 0.10316886730195832 0.2603311849421727
21270816 0.1040471968387694 0.2665338812354529
21271808 0.10443283692528199 0.27151367631489687
21272800 0.1037996206826903 0.27579018428800955
21273792 0.1050480271563101 0.28159939851310245
21274784 0.1054256228610554 0.28618888604006426
21275776 0.10509338683049863 0.2909884455981239
21276768 0.10651676806265853 0.2968976518688837
21277760 0.106337893659742 0.3007156250884592
21278752 0.10718696305267991 0.30624888084582774
21279744 0.10862132334216802 0.311122632000649
21280736 0.10827999462211385 0.3154024189339927
21281728 0.10942881297001543 0.3213066252925326
21282720 0.11021115635808366 0.32597953394557183
21283712 0.11011184179811993 0.33047909326600816
21284704 0.11198234603086603 0.3361255655416163
21285696 0.1128950109938389 0.3402177432040691
21286688 0.11311726326664322 0.34480500370393624
21287680 0.11547272099460856 0.3500016668619903
21288672 0.11581853446246296 0.35394065371321315
21289664 0.11728263315205557 0.3592068240169322
21290656 0.118851920842995 0.36376961876669917
21291648 0.11898713154953196 0.36757961541224343
21292640 0.1208840125985024 0.37300117454385634
21293632 0.1223698532964576 0.3769911393120264
21294624 0.12295635260429072 0.381221704996512
21295616 0.12516493309319215 0.38639588040327577
21296608 0.1259818946298608 0.3903004037153662
21297600 0.12735245915633364 0.39448078744559256
21298592 0.13000196655069704 0.3992309117261081
21299584 0.1307196654675631 0.4032065572667201
21300576 0.13065096147645974 0.40754667545361634
21301568 0.13336305763663614 0.4119620445201988
21302560 0.13529669543376957 0.41614779868610374
21303552 0.13779388769927386 0.4202310678257308
21304544 0.13892064200935306 0.42393187042179276
21305536 0.14071906482537902 0.42832087535776203
21306528 0.1430321369698483 0.43257128317576243
21307520 0.1439025122470344 0.43659684758135914
21308512 0.14930136889410087 0.43809580242682256
21309504 0.1481601735417711 0.44404027299309085
21310496 0.14975916854090923 0.4479562212953962
21311488 0.15262720910424968 0.4521807732186489
21312480 0.15410938312627617 0.4558399715243923
21313472 0.15617183714555183 0.4599894658872414
21314464 0.1584174872100562 0.4635040470247882
21315456 0.15958178181072719 0.46680441226429803
21316448 0.16224503193707107 0.4705694959859617
21317440 0.1644577843474747 0.474642570819095
21318432 0.1661203237847892 0.4779814921185348
21319424 0.1688624421383454 0.4815233757390713
21320416 0.1702386185309273 0.4844860576756277
21321408 0.1722310249693669 0.4883115755828375
21322400 0.17553456451833216 0.4920843256676421
21323392 0.17709510024745415 0.4951563145802201
21324384 0.17963050393978783 0.4984438868627448
21325376 0.1821573004291113 0.5013972550954743
21326368 0.18357274699097526 0.5048630691101577
21327360 0.18700213184087652 0.508430241422844
21328352 0.1888329196866418 0.5114752704223643
21329344 0.19056185334641088 0.5144934592365149
21330336 0.19363639118522039 0.5175289016920144
21331328 0.19524810091304384 0.5201822621894501
21332320 0.1984232599899993 0.5236777680418697
21333312 0.20127638921126562 0.5263251572015324
21334304 0.20241358903169596 0.5296029944186674
21335296 0.2049934085231207 0.5320557209241497
21336288 0.20777062224340787 0.53504539206528
21337280 0.20989507505608204 0.5383185833736657
21338272 0.21033206497163445 0.5433484845218354
21339264 0.2152352757712541 0.5435542947010545
21340256 0.2171445498866993 0.5461788090039128
21341248 0.22036564177680978 0.5492336145602722
21342240 0.22259869575695687 0.5514606603818727
21343232 0.2252146305188226 0.5544812693666373
21344224 0.22779320814987902 0.55685291792515
21345216 0.2300300686903338 0.5594035523065557
21346208 0.23274296798181474 0.5620102402279249
21347200 0.23556109364427608 0.5641683281714884
21348192 0.23764108075371726 0.566478346549636
21349184 0.2407389617757809 0.5692235434785049
21350176 0.24264595824786353 0.571807113429629
21351168 0.24533063967285695 0.5746801890724196
21352160 0.24844268438477518 0.5766481585560775
21353152 0.25049319120691915 0.5788020480646119
21354144 0.2531980731993629 0.5809479919595498
21355136 0.24719075555323303 0.590831562862951
21356128 0.25776053984474445 0.5853764940351343
21357120 0.26082537406822787 0.5879554863698653
21358112 0.26359030354468765 0.5899308717690523
21359104 0.26569515239538655 0.5924267843138628
21360096 0.26847989320758875 0.5940193309478028
21361088 0.2708270336879292 0.5959986260433322
21362080 0.2734828098681439 0.5985714626053438
21363072 0.2766078789595303 0.5997938924482085
21364064 0.27878289904142606 0.6020801005796894
21365056 0.28119717471191996 0.6040644007604844
21366048 0.28376535234225314 0.6056406599814662
21367040 0.2861077712011931 0.6078535337587521
21368032 0.2892841310817913 0.6093822081944287
21369024 0.2916140689812449 0.6110831016745921
21370016 0.2938333452544983 0.6132108399954516
21371008 0.29667062616048195 0.6144446061867044
21372000 0.299181879231811 0.6164516950722132
21372992 0.30154388357262274 0.618299295854319
21373984 0.30416532518469186 0.6194978784677974
21374976 0.3062161266294275 0.6216739776846522
21375968 0.30916002661488795 0.6229020377747361
21376960 0.31198980439532825 0.6243248701028488
21377952 0.31400262217304725 0.6261459480284869
21378944 0.3172710713838847 0.6274258421496681
21379936 0.31916017656649565 0.6289038746165819
21380928 0.32180937107682034 0.6307811499075588
21381920 0.3246679777711761 0.6321028744041202
21382912 0.3271117140886966 0.6334614725182746
21383904 0.32925777252672095 0.6346920320494409
21384896 0.3412094886219181 0.6261384322807473
21385888 0.3343835287317209 0.63751236314311
21386880 0.33672566325199105 0.6386790537623229
21387872 0.3393480814666212 0.6400319433091216
21388864 0.34147929553218487 0.641621718121709
21389856 0.34382849434078117 0.6424685257866515
21390848 0.346996836984018 0.6435672079036552
21391840 0.3490242480450147 0.6454568876705195
21392832 0.35168825709131973 0.6457923342641263
21393824 0.3537489989002341 0.6470062785689858
21394816 0.35662603351249494 0.6486084015164342
21395808 0.3588901521047356 0.6494582757874079
21396800 0.36130046469935345 0.6510734711534254
21397792 0.3638379075946213 0.6514084053645832
21398784 0.36597478065017686 0.6523065510923131
21399776 0.36832453425965495 0.6539223953331058
21400768 0.3709637845610677 0.6553499338170833
21401760 0.373253841140264 0.6561478052868192
21402752 0.37523269063919945 0.6570849287255811
21403744 0.37809046391376616 0.657879487112544
21404736 0.37969839710446884 0.6589926262452978
21405728 0.3820807251534209 0.6592808931733527
21406720 0.38515625789059205 0.6608032282816217
21407712 0.38791106670060027 0.6613585388682719
