# HZ S RI R 50
14000000 0.4428807372114762 0.7127448654368029
14003000 0.45505365925267827 0.7015644037137289
14006000 0.46548479671435244 0.6898707866751324
14009000 0.4760826990377152 0.677700832730029
14012000 0.4873814888230707 0.6646726526191432
14015000 0.4976088933019734 0.651275256599387
14018000 0.5085009112595834 0.6365517383966813
14021000 0.5192450065732312 0.6214505322237377
14024000 0.5302497692005886 0.6057068861077055
14027000 0.5399249882101794 0.5887313213517937
14030000 0.5499619960653929 0.5712601212559876
14033000 0.5596466910066088 0.5529235421006125
14036000 0.5683422300949303 0.5338670316492402
14039000 0.5764967051467698 0.5130390164843174
14042000 0.5848459078215797 0.49200643538044375
14045000 0.593116623154461 0.470028970438271
14048000 0.5997125922869958 0.44674031435912315
14051000 0.6052693698764917 0.42241622770778164
14054000 0.6101028602976464 0.3972925575703004
14057000 0.613755976078859 0.37074136311927247
14060000 0.6165338501710789 0.342953368879487
14063000 0.6184856193552326 0.3140113854418027
14066000 0.6181940264745615 0.2847426976637004
14069000 0.6160889474247504 0.25404041363761276
14072000 0.6134383882665606 0.22299103740216877
14075000 0.6073387673493749 0.19155179327929828
14078000 0.5996339603451752 0.1594162700076113
14081000 0.5903644995906636 0.12591460917070624
14084000 0.5780427576743347 0.09211426694286104
14087000 0.564237408179879 0.05775068278587619
14090000 0.5467017275395815 0.02427854441191374
14093000 0.5262992397126823 -0.008108322179758886
14096000 0.5035499165614273 -0.040627498729288225
14099000 0.47788213236021093 -0.07232857600801718
14102000 0.4494335250583611 -0.10224113500026351
14105000 0.41764753865653537 -0.1329431797234982
14108000 0.38441861450939774 -0.1589423468508418
14111000 0.3479215778062386 -0.18364972873332344
14114000 0.3088079133445589 -0.20488884031865393
14117000 0.2681086921447993 -0.22386331437051332
14120000 0.2252298034338022 -0.23944157305502753
14123000 0.17982306574281923 -0.25291027183255244
14126000 0.1339617890871316 -0.2614736688651679
14129000 0.08814968303061646 -0.2660163555972468
14132000 0.04218391418456852 -0.26679086559357346
14135000 -0.0021734948295061667 -0.26302500911313714
14138000 -0.04719533202855773 -0.25705788875082364
14141000 -0.09123671328428161 -0.2471929321103451
14144000 -0.1340831443147875 -0.2347649856218812
14147000 -0.17523381906198113 -0.2172663225531575
14150000 -0.2138378922659134 -0.19890047202154368
14153000 -0.2495538572554495 -0.17609527945558892
14156000 -0.2830839746482022 -0.1523296991854739
14159000 -0.3147217646314202 -0.12626105420845699
14162000 -0.3433983514705317 -0.09916832382910465
14165000 -0.37119694514056184 -0.07059793148716201
14168000 -0.3945738009092066 -0.040521057204163796
14171000 -0.4152278102176156 -0.011278428284306145
14174000 -0.43390361240237973 0.019382410653517076
14177000 -0.45013219868992305 0.050027617533704986
14180000 -0.4636796147037551 0.08084178031526913
14183000 -0.47640603332513964 0.11197122371395277
14186000 -0.48597267489336915 0.14184496934185614
14189000 -0.49320321672197853 0.17164060800791742
14192000 -0.4984192724088378 0.20004268411566217
14195000 -0.5020208032754383 0.22790644042865482
14198000 -0.5047513680179548 0.25492857584501516
14201000 -0.506199881044703 0.28246839794428047
14204000 -0.5061946383809794 0.30820826330692236
14207000 -0.5053598989111956 0.33418444986370616
14210000 -0.5028221111785254 0.3580013191979002
14213000 -0.49934910388267306 0.38085730342559954
14216000 -0.4948570287091415 0.40346989477596307
14219000 -0.4900958762197964 0.4242278199019511
14222000 -0.4850762366744664 0.44534337931405493
14225000 -0.47872063661894176 0.46573771080838106
14228000 -0.47249993275912994 0.48378945950464763
14231000 -0.4654104466078362 0.5024867023632992
14234000 -0.4579818603545461 0.5202587510101189
14237000 -0.45034228970095 0.5368016996529072
14240000 -0.4425828441880068 0.5530454350424655
14243000 -0.4338351137554799 0.5685514217740366
14246000 -0.4253180751635063 0.5834390749577282
14249000 -0.4164971753379988 0.5973110088176086
14252000 -0.4079954689955393 0.6103944313780925
14255000 -0.39905237129660764 0.6229624636284077
14258000 -0.38949263109521287 0.6355644510791835
14261000 -0.38065587848260596 0.6470546481302053
14264000 -0.3717078761164841 0.6587498196095827
14267000 -0.36166081885254564 0.6697333231297007
14270000 -0.35244453172536705 0.6798935944792257
14273000 -0.34294446108265203 0.6894344099821664
14276000 -0.33332605940004717 0.6984503183097095
14279000 -0.32456517357646253 0.7080296488234885
14282000 -0.31518356303265005 0.7162871007449048
14285000 -0.30625307409069796 0.724815649988198
14288000 -0.29668029024010223 0.7327684185782298
14291000 -0.28714020641932564 0.739961277668485
14294000 -0.2777608856750837 0.7466094180507832
14297000 -0.2691927728662156 0.7540390023856923
14300000 -0.2599454326033084 0.7604014854052973
