# MHz S MA R 50
!   freq        S11       
  24.890  0.26672  -24.16
  24.891  0.26412  -23.90
  24.892  0.26201  -23.64
  24.893  0.25909  -23.25
  24.894  0.25635  -22.87
  24.895  0.25488  -22.62
  24.896  0.25155  -22.17
  24.897  0.24931  -21.96
  24.898  0.24735  -21.43
  24.899  0.24512  -20.97
  24.900  0.24245  -20.81
  24.901  0.24033  -20.11
  24.902  0.23892  -19.85
  24.903  0.23608  -19.22
  24.904  0.23397  -18.92
  24.905  0.23239  -18.31
  24.906  0.23033  -17.77
  24.907  0.22795  -17.44
  24.908  0.22600  -16.62
  24.909  0.22504  -16.33
  24.910  0.22231  -15.60
  24.911  0.22057  -15.10
  24.912  0.21943  -14.39
  24.913  0.21784  -13.85
  24.914  0.21539  -13.27
  24.915  0.21435  -12.38
  24.916  0.21343  -12.03
  24.917  0.21151  -11.18
  24.918  0.20987  -10.58
  24.919  0.20897   -9.82
  24.920  0.20802   -9.11
  24.921  0.20614   -8.46
  24.922  0.20552   -7.48
  24.923  0.20481   -7.04
  24.924  0.20362   -6.07
  24.925  0.20242   -5.35
  24.926  0.20199   -4.58
  24.927  0.20162   -3.69
  24.928  0.19999   -3.05
  24.929  0.20016   -2.04
  24.930  0.19971   -1.53
  24.931  0.19895   -0.40
  24.932  0.19839    0.33
  24.933  0.19867    1.04
  24.934  0.19880    1.99
  24.935  0.19757    2.76
  24.936  0.19842    3.68
  24.937  0.19829    4.16
  24.938  0.19836    5.35
  24.939  0.19821    6.15
  24.941  0.19911    6.85
  24.942  0.19965    7.68
  24.943  0.19907    8.48
  24.944  0.20062    9.48
  24.945  0.20083    9.98
  24.946  0.20155   10.97
  24.947  0.20198   11.68
  24.948  0.20318   12.43
  24.949  0.20444   13.23
  24.950  0.20441   13.98
  24.951  0.20648   14.76
  24.952  0.20700   15.36
  24.953  0.20856   16.28
  24.954  0.20928   16.96
  24.955  0.21100   17.52
  24.956  0.21254   18.24
  24.957  0.21316   19.03
  24.958  0.21565   19.64
  24.959  0.21638   20.04
  24.960  0.21844   20.95
  24.961  0.21987   21.56
  24.962  0.22186   22.03
  24.963  0.22384   22.56
  24.964  0.22492   23.26
  24.965  0.22752   23.83
  24.966  0.22890   24.21
  24.967  0.23140   24.87
  24.968  0.23310   25.35
  24.969  0.23511   25.79
  24.970  0.23759   26.27
  24.971  0.23899   26.80
  24.972  0.24194   27.15
  24.973  0.24334   27.55
  24.974  0.24636   28.10
  24.975  0.24824   28.42
  24.976  0.25020   28.68
  24.977  0.25309   29.13
  24.978  0.25453   29.63
  24.979  0.25798   29.80
  24.980  0.25942   30.05
  24.981  0.26270   30.52
  24.982  0.26442   30.86
  24.983  0.26710   30.98
  24.984  0.26990   31.22
  24.985  0.27161   31.67
  24.986  0.27506   31.88
  24.987  0.27642   32.02
  24.988  0.28001   32.30
  24.989  0.28203   32.56
  24.990  0.28505   32.75
