# MHz S MA R 50
!   freq        S11       
  21.000  0.66705  -84.97
  21.005  0.66149  -85.63
  21.009  0.65590  -86.36
  21.014  0.65037  -87.01
  21.018  0.64513  -87.71
  21.023  0.63916  -88.37
  21.027  0.63241  -89.12
  21.032  0.62635  -89.80
  21.036  0.61913  -90.54
  21.041  0.61241  -91.23
  21.045  0.60470  -91.98
  21.050  0.59728  -92.66
  21.055  0.58976  -93.39
  21.059  0.58163  -94.11
  21.064  0.57314  -94.79
  21.068  0.56434  -95.51
  21.073  0.55531  -96.15
  21.077  0.54646  -96.88
  21.082  0.53669  -97.53
  21.086  0.52680  -98.20
  21.091  0.51729  -98.83
  21.095  0.50680  -99.46
  21.100  0.49676 -100.14
  21.105  0.48575 -100.61
  21.109  0.47423 -101.25
  21.114  0.46324 -101.70
  21.118  0.45109 -102.23
  21.123  0.44013 -102.59
  21.127  0.42688 -103.04
  21.132  0.41551 -103.36
  21.136  0.40242 -103.62
  21.141  0.39018 -103.79
  21.145  0.37684 -103.81
  21.150  0.36392 -103.85
  21.155  0.35133 -103.65
  21.159  0.33826 -103.39
  21.164  0.32564 -102.96
  21.168  0.31248 -102.34
  21.173  0.30023 -101.55
  21.177  0.28740 -100.45
  21.182  0.27582  -99.29
  21.186  0.26448  -97.62
  21.191  0.25364  -95.91
  21.195  0.24412  -93.61
  21.200  0.23484  -91.11
  21.205  0.22801  -88.31
  21.209  0.22128  -85.22
  21.214  0.21660  -81.96
  21.218  0.21306  -78.27
  21.223  0.21175  -74.91
  21.227  0.21165  -70.99
  21.232  0.21308  -67.48
  21.236  0.21687  -63.97
  21.241  0.22162  -60.61
  21.245  0.22854  -57.73
  21.250  0.23601  -54.78
  21.255  0.24452  -52.64
  21.259  0.25448  -50.40
  21.264  0.26453  -48.65
  21.268  0.27576  -47.16
  21.273  0.28688  -45.92
  21.277  0.29927  -44.87
  21.282  0.31095  -44.07
  21.286  0.32355  -43.45
  21.291  0.33613  -42.99
  21.295  0.34872  -42.80
  21.300  0.36161  -42.54
  21.305  0.37329  -42.54
  21.309  0.38606  -42.58
  21.314  0.39777  -42.71
  21.318  0.41026  -42.91
  21.323  0.42176  -43.17
  21.327  0.43341  -43.54
  21.332  0.44483  -43.92
  21.336  0.45586  -44.38
  21.341  0.46726  -44.88
  21.345  0.47753  -45.38
  21.350  0.48815  -45.94
  21.355  0.49790  -46.51
  21.359  0.50807  -47.15
  21.364  0.51750  -47.73
  21.368  0.52701  -48.41
  21.373  0.53584  -49.01
  21.377  0.54437  -49.72
  21.382  0.55306  -50.35
  21.386  0.56094  -51.03
  21.391  0.56928  -51.72
  21.395  0.57684  -52.40
  21.400  0.58445  -53.10
  21.405  0.59171  -53.76
  21.409  0.59903  -54.53
  21.414  0.60558  -55.16
  21.418  0.61229  -55.90
  21.423  0.61845  -56.55
  21.427  0.62479  -57.27
  21.432  0.63090  -57.96
  21.436  0.63664  -58.64
  21.441  0.64243  -59.37
  21.445  0.64763  -60.02
  21.450  0.65293  -60.72
