# MHz S MA R 50
!   freq        S11       
  18.050  0.34192  122.48
  18.051  0.33701  122.35
  18.052  0.33214  122.19
  18.054  0.32700  122.12
  18.055  0.32189  122.04
  18.056  0.31733  121.80
  18.057  0.31171  121.89
  18.058  0.30683  121.68
  18.060  0.30201  121.68
  18.061  0.29661  121.57
  18.062  0.29152  121.63
  18.063  0.28676  121.59
  18.065  0.28163  121.50
  18.066  0.27606  121.72
  18.067  0.27107  121.62
  18.068  0.26609  121.77
  18.069  0.26072  121.77
  18.071  0.25549  122.02
  18.072  0.25024  122.15
  18.073  0.24530  122.19
  18.074  0.23969  122.66
  18.075  0.23450  122.70
  18.077  0.22942  123.11
  18.078  0.22433  123.20
  18.079  0.21927  123.86
  18.080  0.21388  124.04
  18.082  0.20911  124.49
  18.083  0.20372  125.04
  18.084  0.19857  125.55
  18.085  0.19350  126.24
  18.086  0.18868  126.65
  18.088  0.18387  127.74
  18.089  0.17891  128.23
  18.090  0.17466  129.20
  18.091  0.16951  130.09
  18.092  0.16506  131.35
  18.094  0.16064  132.44
  18.095  0.15641  133.38
  18.096  0.15255  135.10
  18.097  0.14796  136.35
  18.098  0.14475  137.96
  18.100  0.14060  139.45
  18.101  0.13766  141.47
  18.102  0.13391  143.35
  18.103  0.13133  145.18
  18.105  0.12854  147.59
  18.106  0.12586  149.66
  18.107  0.12435  152.14
  18.108  0.12152  154.33
  18.109  0.12118  157.19
  18.111  0.11937  159.58
  18.112  0.11866  162.20
  18.113  0.11854  165.15
  18.114  0.11839  167.64
  18.115  0.11889  170.35
  18.117  0.11864  173.12
  18.118  0.12081  175.75
  18.119  0.12135  178.26
  18.120  0.12365 -179.26
  18.122  0.12550 -176.74
  18.123  0.12803 -174.73
  18.124  0.13071 -172.48
  18.125  0.13290 -170.24
  18.126  0.13694 -168.37
  18.128  0.13949 -166.62
  18.129  0.14362 -164.98
  18.130  0.14694 -163.13
  18.131  0.15140 -162.03
  18.132  0.15519 -160.61
  18.134  0.15912 -159.22
  18.135  0.16433 -158.18
  18.136  0.16826 -157.01
  18.137  0.17335 -156.08
  18.138  0.17773 -154.91
  18.140  0.18313 -154.42
  18.141  0.18774 -153.49
  18.142  0.19256 -152.79
  18.143  0.19812 -152.23
  18.145  0.20254 -151.67
  18.146  0.20814 -151.24
  18.147  0.21303 -150.51
  18.148  0.21862 -150.45
  18.149  0.22319 -149.87
  18.151  0.22852 -149.69
  18.152  0.23407 -149.27
  18.153  0.23896 -149.13
  18.154  0.24447 -148.95
  18.155  0.24932 -148.58
  18.157  0.25491 -148.70
  18.158  0.25989 -148.36
  18.159  0.26527 -148.34
  18.160  0.27039 -148.21
  18.162  0.27559 -148.28
  18.163  0.28110 -148.19
  18.164  0.28607 -148.02
  18.165  0.29146 -148.26
  18.166  0.29647 -148.13
  18.168  0.30189 -148.22
  18.169  0.30692 -148.21
  18.170  0.31200 -148.45
